time	V(x_t)	V(y)
0.000000000000000e+000	0.000000e+000	9.332272e-019
2.692532378555927e-007	8.458839e-006	9.635638e-012
5.385064757111854e-007	1.691768e-005	1.892516e-011
8.077597135667781e-007	2.537652e-005	2.786857e-011
1.077012951422371e-006	3.383536e-005	3.646587e-011
1.346266189277963e-006	4.229420e-005	4.471705e-011
1.615519427133556e-006	5.075304e-005	5.262212e-011
1.884772664989148e-006	5.921188e-005	6.018108e-011
2.271386870191560e-006	7.135772e-005	6.147692e-011
2.629591850054331e-006	8.261106e-005	6.349243e-011
3.122928463362784e-006	9.810969e-005	6.406148e-011
3.676038312066024e-006	1.154862e-004	6.364130e-011
4.413417689142568e-006	1.386516e-004	6.350965e-011
5.275454653238773e-006	1.657333e-004	6.287641e-011
6.394812850803764e-006	2.008990e-004	6.169383e-011
7.739080693860355e-006	2.431304e-004	6.005067e-011
9.457527395658937e-006	2.971170e-004	5.729536e-011
1.155342240745712e-005	3.629615e-004	5.317155e-011
1.420628677793311e-005	4.463037e-004	4.664386e-011
1.747095011829897e-005	5.488661e-004	3.673382e-011
2.157827223762913e-005	6.779014e-004	2.144316e-011
2.665973275589481e-005	8.375402e-004	-1.449246e-012
3.302994997305770e-005	1.037666e-003	-3.547657e-011
4.093676000009728e-005	1.286066e-003	-8.381669e-011
5.082955822638782e-005	1.596858e-003	-1.489292e-010
6.121787972082804e-005	1.923216e-003	-2.156815e-010
7.182343243232077e-005	2.256399e-003	-2.726574e-010
8.173996797011620e-005	2.567936e-003	-3.037882e-010
9.220303838684718e-005	2.896643e-003	-2.982809e-010
1.032245896798259e-004	3.242895e-003	-2.313411e-010
1.153064496962672e-004	3.622458e-003	-5.748714e-011
1.291163270493178e-004	4.056307e-003	3.190383e-010
1.463187059642767e-004	4.596735e-003	1.133853e-009
1.665386472677657e-004	5.231962e-003	2.740896e-009
1.909861078884689e-004	6.000000e-003	5.932553e-009
2.195320480143752e-004	6.896794e-003	1.197693e-008
2.535167559212335e-004	7.964450e-003	2.353322e-008
2.932019048655534e-004	9.211189e-003	4.506870e-008
3.401628253444760e-004	1.068650e-002	8.552171e-008
3.951794561626603e-004	1.241488e-002	1.528609e-007
4.172015830922802e-004	1.310671e-002	1.871318e-007
4.287753699196551e-004	1.347031e-002	2.080434e-007
4.357378861034288e-004	1.368904e-002	2.232278e-007
4.427796695102265e-004	1.391026e-002	2.391147e-007
4.502709611663815e-004	1.414560e-002	2.570060e-007
4.537889115788590e-004	1.425612e-002	2.650767e-007
4.579775206855870e-004	1.438771e-002	2.750886e-007
4.606549293644241e-004	1.447182e-002	2.819279e-007
4.638512784553421e-004	1.457223e-002	2.895261e-007
4.680048544722910e-004	1.470272e-002	3.004596e-007
4.731026542895241e-004	1.486287e-002	3.141022e-007
4.832982539239904e-004	1.518317e-002	3.422883e-007
4.970914376796657e-004	1.561649e-002	3.829616e-007
6.185774053952398e-004	1.943299e-002	8.815672e-007
7.496202595964833e-004	2.354967e-002	1.707555e-006
1.011705967998970e-003	3.178282e-002	4.258855e-006
1.535877384803944e-003	4.824802e-002	1.295058e-005
2.584220218413892e-003	8.117140e-002	4.466119e-005
4.680905885633788e-003	1.469702e-001	1.651415e-004
8.874277220073579e-003	2.782162e-001	6.321373e-004
1.726101988895316e-002	5.380287e-001	2.449824e-003
3.403450522671233e-002	1.036925e+000	9.123945e-003
6.138141329037250e-002	1.742744e+000	2.664292e-002
9.067828829037250e-002	2.271058e+000	5.221710e-002
1.018939626278705e-001	2.395353e+000	6.411838e-002
1.102052277292886e-001	2.456918e+000	7.398273e-002
1.188535409375776e-001	2.492546e+000	8.487353e-002
1.302116362798836e-001	2.494641e+000	9.989274e-002
1.409838635977148e-001	2.449739e+000	1.147944e-001
1.584594278632423e-001	2.282249e+000	1.396907e-001
1.584619333832133e-001	2.282218e+000	1.396944e-001
1.584700225683783e-001	2.282114e+000	1.397062e-001
1.584772595155504e-001	2.282021e+000	1.397167e-001
1.584917334098948e-001	2.281835e+000	1.397378e-001
1.585206811985836e-001	2.281463e+000	1.397800e-001
1.585785767759612e-001	2.280719e+000	1.398643e-001
1.586943679307162e-001	2.279227e+000	1.400330e-001
1.588654244692957e-001	2.277014e+000	1.402821e-001
1.588719132713522e-001	2.276929e+000	1.402915e-001
1.588793290451310e-001	2.276833e+000	1.403023e-001
1.588941605926886e-001	2.276641e+000	1.403239e-001
1.589006047787851e-001	2.276557e+000	1.403333e-001
1.589070489648815e-001	2.276473e+000	1.403427e-001
1.589134931509780e-001	2.276390e+000	1.403520e-001
1.589199373370745e-001	2.276306e+000	1.403614e-001
1.589263815231710e-001	2.276222e+000	1.403708e-001
1.589328257092675e-001	2.276139e+000	1.403802e-001
1.589392698953639e-001	2.276055e+000	1.403895e-001
1.589549612808219e-001	2.275851e+000	1.404124e-001
1.589593283190570e-001	2.275794e+000	1.404187e-001
1.589629869131766e-001	2.275747e+000	1.404240e-001
1.589654636047386e-001	2.275714e+000	1.404276e-001
1.589681677734237e-001	2.275679e+000	1.404316e-001
1.589785118819884e-001	2.275545e+000	1.404466e-001
1.589875392766016e-001	2.275427e+000	1.404597e-001
1.590055940658279e-001	2.275192e+000	1.404860e-001
1.590417036442806e-001	2.274722e+000	1.405385e-001
1.590671981165574e-001	2.274389e+000	1.405755e-001
1.590960263790444e-001	2.274013e+000	1.406174e-001
1.591355920456164e-001	2.273496e+000	1.406749e-001
1.591529474441059e-001	2.273270e+000	1.407001e-001
1.591621279935598e-001	2.273150e+000	1.407134e-001
1.591713641115607e-001	2.273029e+000	1.407268e-001
1.591786421227188e-001	2.272934e+000	1.407374e-001
1.601080910973747e-001	2.260617e+000	1.420788e-001
1.610375400720306e-001	2.247996e+000	1.434052e-001
1.619669890466865e-001	2.235070e+000	1.447164e-001
1.628964380213424e-001	2.221840e+000	1.460126e-001
1.638258869959983e-001	2.208305e+000	1.472936e-001
1.647553359706542e-001	2.194465e+000	1.485595e-001
1.656847849453101e-001	2.180322e+000	1.498103e-001
1.721858919865123e-001	2.073232e+000	1.581368e-001
1.851881060689168e-001	1.818371e+000	1.725732e-001
2.111925342337257e-001	1.171420e+000	1.946465e-001
2.404894092337257e-001	2.980733e-001	2.095238e-001
2.697862842337257e-001	-6.152194e-001	2.127478e-001
2.990831592337257e-001	-1.446064e+000	2.039881e-001
3.283800342337257e-001	-2.083115e+000	1.843747e-001
3.466786910711499e-001	-2.343337e+000	1.666026e-001
3.563141911413674e-001	-2.431395e+000	1.550605e-001
3.640951972376554e-001	-2.476564e+000	1.445465e-001
3.723825642764401e-001	-2.498648e+000	1.323420e-001
3.815268511252405e-001	-2.491596e+000	1.177029e-001
3.931237696748617e-001	-2.435442e+000	9.796450e-002
3.932074851307282e-001	-2.434847e+000	9.781253e-002
3.932912005865948e-001	-2.434249e+000	9.766043e-002
3.933749160424614e-001	-2.433649e+000	9.750820e-002
3.934586314983279e-001	-2.433046e+000	9.735586e-002
3.935423469541945e-001	-2.432440e+000	9.720339e-002
3.936260624100611e-001	-2.431831e+000	9.705080e-002
3.937097778659277e-001	-2.431220e+000	9.689809e-002
3.942969328440603e-001	-2.426856e+000	9.582359e-002
3.954712428003256e-001	-2.417734e+000	9.365658e-002
4.025171025379175e-001	-2.352020e+000	8.028085e-002
4.061856743641799e-001	-2.310472e+000	7.306312e-002
4.063324631087130e-001	-2.308706e+000	7.276977e-002
4.066260405977794e-001	-2.305152e+000	7.218194e-002
4.072131955759120e-001	-2.297950e+000	7.100239e-002
4.080999240762628e-001	-2.286836e+000	6.921021e-002
4.098733810769643e-001	-2.263758e+000	6.559554e-002
4.151525371678473e-001	-2.188454e+000	5.453602e-002
4.221918415745140e-001	-2.073128e+000	3.940989e-002
4.221927008121589e-001	-2.073112e+000	3.940799e-002
4.221978562380290e-001	-2.073022e+000	3.939664e-002
4.231717710071268e-001	-2.055755e+000	3.724473e-002
4.241456857762246e-001	-2.038189e+000	3.508236e-002
4.251196005453224e-001	-2.020322e+000	3.290954e-002
4.260935153144202e-001	-2.002156e+000	3.072625e-002
4.270674300835180e-001	-1.983689e+000	2.853249e-002
4.280413448526158e-001	-1.964922e+000	2.632828e-002
4.290152596217136e-001	-1.945855e+000	2.411361e-002
4.290630819770137e-001	-1.944911e+000	2.400458e-002
4.291109043323138e-001	-1.943967e+000	2.389552e-002
4.291587266876138e-001	-1.943022e+000	2.378645e-002
4.292065490429138e-001	-1.942076e+000	2.367735e-002
4.292543713982139e-001	-1.941130e+000	2.356824e-002
4.293021937535140e-001	-1.940183e+000	2.345910e-002
4.293500161088140e-001	-1.939235e+000	2.334994e-002
4.293664709620313e-001	-1.938908e+000	2.331237e-002
4.293802951691530e-001	-1.938634e+000	2.328080e-002
4.294079435833963e-001	-1.938086e+000	2.321767e-002
4.294293062076083e-001	-1.937662e+000	2.316888e-002
4.294488385329599e-001	-1.937274e+000	2.312427e-002
4.294721450190434e-001	-1.936811e+000	2.307103e-002
4.294937803987657e-001	-1.936381e+000	2.302161e-002
4.295197694129402e-001	-1.935865e+000	2.296223e-002
4.295417322162983e-001	-1.935428e+000	2.291205e-002
4.295636950196564e-001	-1.934991e+000	2.286186e-002
4.295856578230146e-001	-1.934554e+000	2.281167e-002
4.296076206263726e-001	-1.934117e+000	2.276148e-002
4.296295834297308e-001	-1.933680e+000	2.271129e-002
4.296515462330889e-001	-1.933242e+000	2.266109e-002
4.296735090364470e-001	-1.932805e+000	2.261089e-002
4.297517335993623e-001	-1.931245e+000	2.243211e-002
4.298843288153095e-001	-1.928597e+000	2.212910e-002
4.298953836136666e-001	-1.928376e+000	2.210384e-002
4.299026034357839e-001	-1.928232e+000	2.208735e-002
4.299065757443411e-001	-1.928153e+000	2.207827e-002
4.299084624627280e-001	-1.928115e+000	2.207396e-002
4.299103918314632e-001	-1.928076e+000	2.206956e-002
4.299124282042961e-001	-1.928036e+000	2.206490e-002
4.299144605908367e-001	-1.927995e+000	2.206026e-002
4.299165822774214e-001	-1.927953e+000	2.205542e-002
4.299200884258926e-001	-1.927882e+000	2.204741e-002
4.299235945743637e-001	-1.927812e+000	2.203940e-002
4.299271007228349e-001	-1.927742e+000	2.203139e-002
4.299306068713061e-001	-1.927672e+000	2.202339e-002
4.299341130197773e-001	-1.927602e+000	2.201538e-002
4.299376191682485e-001	-1.927532e+000	2.200737e-002
4.299411253167196e-001	-1.927462e+000	2.199936e-002
4.299486389284456e-001	-1.927311e+000	2.198220e-002
4.299528582897551e-001	-1.927227e+000	2.197257e-002
4.299597514852486e-001	-1.927089e+000	2.195683e-002
4.299644924738013e-001	-1.926994e+000	2.194600e-002
4.299698380084532e-001	-1.926887e+000	2.193379e-002
4.302640052681591e-001	-1.920986e+000	2.126278e-002
4.305581725278650e-001	-1.915058e+000	2.059327e-002
4.308523397875709e-001	-1.909105e+000	1.992528e-002
4.311465070472769e-001	-1.903125e+000	1.925880e-002
4.314406743069828e-001	-1.897119e+000	1.859383e-002
4.317348415666887e-001	-1.891088e+000	1.793037e-002
4.320290088263946e-001	-1.885030e+000	1.726843e-002
4.339988242411288e-001	-1.843808e+000	1.287500e-002
4.379384550705971e-001	-1.758000e+000	4.292018e-003
4.458177167295339e-001	-1.573682e+000	-1.205864e-002
4.615762400474072e-001	-1.160757e+000	-4.162225e-002
4.908731150474072e-001	-2.861013e-001	-8.815317e-002
5.201699900474073e-001	6.268959e-001	-1.240618e-001
5.494668650474073e-001	1.455880e+000	-1.479670e-001
5.787637400474073e-001	2.089755e+000	-1.610248e-001
5.968268726705869e-001	2.344954e+000	-1.636337e-001
6.064241545689357e-001	2.432196e+000	-1.628495e-001
6.142320247831583e-001	2.477147e+000	-1.610219e-001
6.224130597521951e-001	2.498679e+000	-1.581160e-001
6.315381959719815e-001	2.491567e+000	-1.537056e-001
6.431416453013503e-001	2.435315e+000	-1.461664e-001
6.619427909097493e-001	2.235409e+000	-1.313582e-001
6.629888524255574e-001	2.220498e+000	-1.303452e-001
6.640349139413655e-001	2.205209e+000	-1.293132e-001
6.650809754571736e-001	2.189543e+000	-1.282621e-001
6.661270369729817e-001	2.173498e+000	-1.271920e-001
6.671730984887898e-001	2.157076e+000	-1.261027e-001
6.682191600045979e-001	2.140276e+000	-1.249944e-001
6.692652215204060e-001	2.123099e+000	-1.238670e-001
6.765907813749135e-001	1.992765e+000	-1.158114e-001
6.766036751404033e-001	1.992521e+000	-1.157964e-001
6.766165689058932e-001	1.992276e+000	-1.157814e-001
6.766294626713830e-001	1.992031e+000	-1.157664e-001
6.766423564368729e-001	1.991786e+000	-1.157514e-001
6.766552502023627e-001	1.991542e+000	-1.157364e-001
6.766681439678526e-001	1.991297e+000	-1.157214e-001
6.766810377333424e-001	1.991052e+000	-1.157063e-001
6.767723597659471e-001	1.989316e+000	-1.155999e-001
6.769550038311563e-001	1.985835e+000	-1.153865e-001
6.773202919615746e-001	1.978843e+000	-1.149580e-001
6.780508682224113e-001	1.964733e+000	-1.140972e-001
6.782335122876205e-001	1.961180e+000	-1.138809e-001
6.782980503012945e-001	1.959922e+000	-1.138044e-001
6.783625883149687e-001	1.958663e+000	-1.137278e-001
6.784271263286427e-001	1.957402e+000	-1.136511e-001
6.784916643423168e-001	1.956140e+000	-1.135743e-001
6.785562023559908e-001	1.954877e+000	-1.134975e-001
6.786207403696649e-001	1.953612e+000	-1.134206e-001
6.786852783833389e-001	1.952347e+000	-1.133437e-001
6.787372171241934e-001	1.951327e+000	-1.132817e-001
6.787663463115806e-001	1.950755e+000	-1.132469e-001
6.787891909580835e-001	1.950306e+000	-1.132197e-001
6.788089569046458e-001	1.949917e+000	-1.131961e-001
6.788320641354445e-001	1.949463e+000	-1.131685e-001
6.788551402671031e-001	1.949009e+000	-1.131409e-001
6.788810422894613e-001	1.948499e+000	-1.131099e-001
6.788859933720801e-001	1.948402e+000	-1.131040e-001
6.788958955373178e-001	1.948207e+000	-1.130922e-001
6.789156998677931e-001	1.947817e+000	-1.130685e-001
6.789181158930353e-001	1.947769e+000	-1.130656e-001
6.789229479435198e-001	1.947674e+000	-1.130598e-001
6.789259110275532e-001	1.947616e+000	-1.130563e-001
6.789280326849643e-001	1.947574e+000	-1.130537e-001
6.789295750422586e-001	1.947544e+000	-1.130519e-001
6.789311405981113e-001	1.947513e+000	-1.130500e-001
6.789328227670477e-001	1.947480e+000	-1.130480e-001
6.789342684056834e-001	1.947451e+000	-1.130463e-001
6.789349282317143e-001	1.947438e+000	-1.130455e-001
6.789356375211910e-001	1.947424e+000	-1.130446e-001
6.789364453750467e-001	1.947408e+000	-1.130437e-001
6.789373016304754e-001	1.947392e+000	-1.130426e-001
6.789381799634042e-001	1.947374e+000	-1.130416e-001
6.789392278856367e-001	1.947354e+000	-1.130403e-001
6.789412899854521e-001	1.947313e+000	-1.130379e-001
6.789604223926925e-001	1.946936e+000	-1.130150e-001
6.789795547999328e-001	1.946559e+000	-1.129921e-001
6.789986872071732e-001	1.946182e+000	-1.129692e-001
6.790178196144134e-001	1.945804e+000	-1.129463e-001
6.790369520216538e-001	1.945427e+000	-1.129234e-001
6.790560844288941e-001	1.945049e+000	-1.129005e-001
6.790752168361345e-001	1.944672e+000	-1.128775e-001
6.792077996022192e-001	1.942051e+000	-1.127187e-001
6.792088091033386e-001	1.942032e+000	-1.127175e-001
6.792108281055774e-001	1.941991e+000	-1.127151e-001
6.792148661100550e-001	1.941912e+000	-1.127103e-001
6.792229421190101e-001	1.941752e+000	-1.127006e-001
6.792390941369205e-001	1.941432e+000	-1.126812e-001
6.792788130699520e-001	1.940646e+000	-1.126337e-001
6.792886995995662e-001	1.940450e+000	-1.126218e-001
6.793084726587947e-001	1.940058e+000	-1.125982e-001
6.793142153778502e-001	1.939944e+000	-1.125913e-001
6.793169894911086e-001	1.939889e+000	-1.125880e-001
6.793191635791366e-001	1.939846e+000	-1.125854e-001
6.793209249912043e-001	1.939811e+000	-1.125832e-001
6.793231160538046e-001	1.939768e+000	-1.125806e-001
6.793241245645558e-001	1.939748e+000	-1.125794e-001
6.793250866815934e-001	1.939729e+000	-1.125783e-001
6.793260354438484e-001	1.939710e+000	-1.125771e-001
6.793269028431879e-001	1.939693e+000	-1.125761e-001
6.793281609814588e-001	1.939668e+000	-1.125746e-001
6.807058871762651e-001	1.912058e+000	-1.109369e-001
6.820836133710715e-001	1.883895e+000	-1.093238e-001
6.834613395658779e-001	1.855176e+000	-1.077354e-001
6.848390657606841e-001	1.825904e+000	-1.061716e-001
6.862167919554905e-001	1.796077e+000	-1.046325e-001
6.875945181502968e-001	1.765696e+000	-1.031180e-001
6.889722443451032e-001	1.734761e+000	-1.016281e-001
6.986059720117412e-001	1.504666e+000	-9.193379e-002
7.178734273450174e-001	9.820921e-001	-7.592356e-002
7.471703023450174e-001	8.887884e-002	-5.888071e-002
7.764671773450174e-001	-8.162455e-001	-5.083712e-002
8.057640523450174e-001	-1.611981e+000	-5.241231e-002
8.350609273450174e-001	-2.191688e+000	-6.198296e-002
8.492277035485211e-001	-2.370032e+000	-6.950109e-002
8.582107469846760e-001	-2.444565e+000	-7.552903e-002
8.664501465527168e-001	-2.485584e+000	-8.173296e-002
8.739552701447275e-001	-2.499784e+000	-8.786666e-002
8.821116744160834e-001	-2.490023e+000	-9.506088e-002
8.940741257069728e-001	-2.428528e+000	-1.065138e-001
9.134470059463890e-001	-2.213852e+000	-1.262027e-001
9.144928120137195e-001	-2.198394e+000	-1.273415e-001
9.155386180810500e-001	-2.182562e+000	-1.284862e-001
9.165844241483805e-001	-2.166357e+000	-1.296369e-001
9.176302302157109e-001	-2.149778e+000	-1.307934e-001
9.186760362830414e-001	-2.132825e+000	-1.319559e-001
9.197218423503719e-001	-2.115499e+000	-1.331243e-001
9.207676484177024e-001	-2.097800e+000	-1.342986e-001
9.280923142025382e-001	-1.963928e+000	-1.425672e-001
9.280932082722099e-001	-1.963910e+000	-1.425682e-001
9.280949964115531e-001	-1.963876e+000	-1.425702e-001
9.281779537120115e-001	-1.962262e+000	-1.426654e-001
9.282609110124699e-001	-1.960646e+000	-1.427606e-001
9.283438683129283e-001	-1.959028e+000	-1.428558e-001
9.284268256133867e-001	-1.957408e+000	-1.429511e-001
9.285097829138451e-001	-1.955786e+000	-1.430463e-001
9.285927402143035e-001	-1.954161e+000	-1.431416e-001
9.286756975147619e-001	-1.952535e+000	-1.432369e-001
9.286802011877223e-001	-1.952446e+000	-1.432421e-001
9.286990437814748e-001	-1.952077e+000	-1.432637e-001
9.287178863752272e-001	-1.951707e+000	-1.432854e-001
9.287367289689797e-001	-1.951337e+000	-1.433070e-001
9.287555715627321e-001	-1.950967e+000	-1.433287e-001
9.287744141564847e-001	-1.950596e+000	-1.433503e-001
9.287932567502371e-001	-1.950226e+000	-1.433720e-001
9.288120993439896e-001	-1.949856e+000	-1.433937e-001
9.288447934949897e-001	-1.949213e+000	-1.434313e-001
9.288695434454670e-001	-1.948726e+000	-1.434597e-001
9.288899600856524e-001	-1.948324e+000	-1.434832e-001
9.289159244920883e-001	-1.947813e+000	-1.435130e-001
9.289355289591904e-001	-1.947426e+000	-1.435356e-001
9.289474089558854e-001	-1.947192e+000	-1.435492e-001
9.289596524995578e-001	-1.946951e+000	-1.435633e-001
9.289720776942676e-001	-1.946706e+000	-1.435776e-001
9.289778781246127e-001	-1.946592e+000	-1.435843e-001
9.289834043381448e-001	-1.946483e+000	-1.435906e-001
9.289895752949201e-001	-1.946361e+000	-1.435978e-001
9.289960685047253e-001	-1.946233e+000	-1.436052e-001
9.290029399241668e-001	-1.946098e+000	-1.436131e-001
9.290105115619219e-001	-1.945948e+000	-1.436218e-001
9.290187022838236e-001	-1.945787e+000	-1.436312e-001
9.290278703418207e-001	-1.945606e+000	-1.436418e-001
9.290384724275809e-001	-1.945397e+000	-1.436540e-001
9.290511814687431e-001	-1.945146e+000	-1.436686e-001
9.290674622541933e-001	-1.944825e+000	-1.436873e-001
9.290893632454437e-001	-1.944392e+000	-1.437125e-001
9.291215158069137e-001	-1.943757e+000	-1.437495e-001
9.291731891197357e-001	-1.942736e+000	-1.438089e-001
9.291789236120391e-001	-1.942623e+000	-1.438155e-001
9.291846581043425e-001	-1.942509e+000	-1.438221e-001
9.291903925966459e-001	-1.942396e+000	-1.438287e-001
9.291961270889494e-001	-1.942282e+000	-1.438352e-001
9.292018615812528e-001	-1.942169e+000	-1.438418e-001
9.292075960735562e-001	-1.942055e+000	-1.438484e-001
9.292133305658596e-001	-1.941942e+000	-1.438550e-001
9.292516900171982e-001	-1.941183e+000	-1.438991e-001
9.292519338651486e-001	-1.941178e+000	-1.438994e-001
9.292524215610493e-001	-1.941168e+000	-1.438999e-001
9.292532081613236e-001	-1.941153e+000	-1.439008e-001
9.292542658090413e-001	-1.941132e+000	-1.439020e-001
9.292555143684503e-001	-1.941107e+000	-1.439035e-001
9.292576701303705e-001	-1.941064e+000	-1.439060e-001
9.292599340340104e-001	-1.941020e+000	-1.439086e-001
9.292621324556456e-001	-1.940976e+000	-1.439111e-001
9.292647508438655e-001	-1.940924e+000	-1.439141e-001
9.292761004666049e-001	-1.940699e+000	-1.439271e-001
9.292851321918254e-001	-1.940521e+000	-1.439375e-001
9.293017754890053e-001	-1.940191e+000	-1.439566e-001
9.293237599178414e-001	-1.939755e+000	-1.439818e-001
9.293443175549061e-001	-1.939348e+000	-1.440054e-001
