time	V(x_t)	V(y)
0.000000000000000e+000	0.000000e+000	1.093939e-018
3.442297520554133e-006	1.081430e-004	1.063468e-013
6.884595041108266e-006	2.162859e-004	1.672120e-013
1.032689256166240e-005	3.244289e-004	1.825966e-013
1.376919008221653e-005	4.325719e-004	1.525005e-013
1.721148760277067e-005	5.407148e-004	7.692387e-014
2.065378512332480e-005	6.488578e-004	-4.413338e-014
2.409608264387892e-005	7.570008e-004	-2.106712e-013
1.413344604401988e-003	4.442434e-002	-4.392504e-008
2.802593126160097e-003	8.804763e-002	-1.506427e-009
4.191841647918206e-003	1.316269e-001	1.272556e-007
5.581090169676315e-003	1.751620e-001	3.423612e-007
6.970338691434424e-003	2.186531e-001	6.438101e-007
8.359587213192533e-003	2.621002e-001	1.031603e-006
9.748835734950639e-003	3.055032e-001	1.505738e-006
1.220367934815880e-002	3.818889e-001	2.934317e-006
1.528667636191426e-002	4.772969e-001	5.718985e-006
1.918637399001026e-002	5.969349e-001	1.118405e-005
2.412489165267822e-002	7.463495e-001	2.191869e-005
3.043275865878194e-002	9.329385e-001	4.317385e-005
3.854875790858284e-002	1.164233e+000	8.554232e-005
4.915782703125497e-002	1.447977e+000	1.712715e-004
6.335645380679733e-002	1.786690e+000	3.487350e-004
8.332469069165460e-002	2.164928e+000	7.110338e-004
1.012795770063649e-001	2.389755e+000	1.137209e-003
1.097447211350640e-001	2.454203e+000	1.380163e-003
1.182970828630488e-001	2.491137e+000	1.658915e-003
1.300036715554074e-001	2.495059e+000	2.073732e-003
1.406454998826770e-001	2.451838e+000	2.479790e-003
1.579126486214869e-001	2.289207e+000	3.175677e-003
1.855077257356729e-001	1.811466e+000	4.286144e-003
2.148046007356729e-001	1.069999e+000	5.347050e-003
2.441014757356729e-001	1.851380e-001	6.135035e-003
2.733983507356729e-001	-7.245346e-001	6.529978e-003
2.975796243812058e-001	-1.407277e+000	6.471029e-003
3.223023496020314e-001	-1.971576e+000	6.010306e-003
3.452772736397166e-001	-2.327634e+000	5.282151e-003
3.552760555441665e-001	-2.423600e+000	4.867342e-003
3.628027426706562e-001	-2.470691e+000	4.504079e-003
3.720969086046402e-001	-2.498337e+000	4.016075e-003
3.814205701473568e-001	-2.491867e+000	3.491304e-003
3.929503578478691e-001	-2.436666e+000	2.798812e-003
4.116334971657803e-001	-2.239743e+000	1.621540e-003
4.346829790652100e-001	-1.829225e+000	1.508295e-004
4.594685301742892e-001	-1.218989e+000	-1.362811e-003
4.828581135931909e-001	-5.343731e-001	-2.604055e-003
5.121549885931909e-001	3.803771e-001	-3.771437e-003
5.414518635931909e-001	1.244151e+000	-4.456156e-003
5.642576889997859e-001	1.806379e+000	-4.569526e-003
5.875863392256073e-001	2.228746e+000	-4.300330e-003
6.036389610047835e-001	2.410471e+000	-3.919230e-003
6.115160140564385e-001	2.464196e+000	-3.661010e-003
6.204421791659889e-001	2.495901e+000	-3.313196e-003
6.308043769708758e-001	2.493353e+000	-2.860547e-003
6.419481416260296e-001	2.443515e+000	-2.319831e-003
6.600166519820443e-001	2.261845e+000	-1.365030e-003
6.813246836577207e-001	1.899490e+000	-1.859086e-004
7.049501149339355e-001	1.340890e+000	1.110438e-003
7.264704922325410e-001	7.284772e-001	2.175736e-003
7.557673672325410e-001	-1.810286e-001	3.317029e-003
7.850642422325410e-001	-1.066274e+000	4.040421e-003
8.077017223072438e-001	-1.658028e+000	4.216293e-003
8.309747983940399e-001	-2.127070e+000	4.011302e-003
8.524090012518362e-001	-2.399935e+000	3.549255e-003
8.605916774247975e-001	-2.459133e+000	3.293566e-003
8.693211915503364e-001	-2.493637e+000	2.959801e-003
8.803862644554928e-001	-2.494276e+000	2.485106e-003
8.912679707039150e-001	-2.447942e+000	1.967080e-003
9.089183919373602e-001	-2.276326e+000	1.052015e-003
9.302553634800104e-001	-1.921160e+000	-1.063553e-004
9.524099774711479e-001	-1.407547e+000	-1.299810e-003
9.747891055369035e-001	-7.788410e-001	-2.390507e-003
1.004085980536904e+000	1.283085e-001	-3.516738e-003
1.033382855536904e+000	1.018263e+000	-4.228407e-003
1.056190863304811e+000	1.622207e+000	-4.398779e-003
1.079619077719433e+000	2.104383e+000	-4.184998e-003
1.101298149063086e+000	2.389927e+000	-3.708264e-003
1.109758633771041e+000	2.454286e+000	-3.439510e-003
1.118313881224093e+000	2.491181e+000	-3.106830e-003
1.130009952521589e+000	2.495047e+000	-2.596623e-003
1.140655719487661e+000	2.451775e+000	-2.082177e-003
1.157929165609254e+000	2.288999e+000	-1.173544e-003
1.179449772488513e+000	1.937255e+000	1.115216e-005
1.201702427135596e+000	1.425861e+000	1.228152e-003
1.223599542566636e+000	8.142640e-001	2.315290e-003
1.252896417566636e+000	-9.097355e-002	3.471371e-003
1.282193292566636e+000	-9.840193e-001	4.214812e-003
1.305145719300067e+000	-1.597085e+000	4.409892e-003
1.328702183187233e+000	-2.088693e+000	4.218136e-003
1.349933973679060e+000	-2.376999e+000	3.769479e-003
1.358738043407912e+000	-2.447981e+000	3.496643e-003
1.367083834706404e+000	-2.487640e+000	3.180721e-003
1.376117205688324e+000	-2.499754e+000	2.799556e-003
1.384319143665762e+000	-2.482877e+000	2.418998e-003
1.397661159790402e+000	-2.399317e+000	1.742761e-003
1.419207925453411e+000	-2.124048e+000	5.783605e-004
1.441131780190239e+000	-1.685276e+000	-6.327085e-004
1.463549169932072e+000	-1.105510e+000	-1.811584e-003
1.489536331630430e+000	-3.277794e-001	-2.974781e-003
1.518833206630430e+000	5.861549e-001	-3.918661e-003
1.545197512709170e+000	1.344802e+000	-4.356694e-003
1.566942751713411e+000	1.863654e+000	-4.352984e-003
1.589139876907698e+000	2.250431e+000	-4.027085e-003
1.602956928764368e+000	2.404700e+000	-3.673243e-003
1.611003204182830e+000	2.461428e+000	-3.401715e-003
1.619819853683506e+000	2.494705e+000	-3.054313e-003
1.630572337434614e+000	2.493873e+000	-2.581395e-003
1.641570679724232e+000	2.445994e+000	-2.046663e-003
1.659407264268716e+000	2.269933e+000	-1.105764e-003
1.680845204630510e+000	1.909249e+000	7.495302e-005
1.703129653765232e+000	1.388804e+000	1.289267e-003
1.725339861175406e+000	7.623810e-001	2.381042e-003
1.754636736175406e+000	-1.455850e-001	3.513986e-003
1.783933611175406e+000	-1.034040e+000	4.228091e-003
1.806730234650499e+000	-1.635063e+000	4.397543e-003
1.830151501266783e+000	-2.113366e+000	4.181093e-003
1.851897599860349e+000	-2.395386e+000	3.700063e-003
1.860207955565977e+000	-2.456934e+000	3.434959e-003
1.868856839793427e+000	-2.492554e+000	3.097836e-003
1.880212868579853e+000	-2.494638e+000	2.601895e-003
1.890985868514309e+000	-2.449726e+000	2.080842e-003
1.908462667176788e+000	-2.282208e+000	1.161380e-003
1.929940670094526e+000	-1.927471e+000	-2.061672e-005
1.952191991775656e+000	-1.413201e+000	-1.236111e-003
1.974036017234023e+000	-8.012873e-001	-2.317798e-003
2.003332892234023e+000	1.046753e-001	-3.468484e-003
2.032629767234023e+000	9.966099e-001	-4.205658e-003
2.055536122418953e+000	1.606501e+000	-4.395312e-003
2.079051654513122e+000	2.094706e+000	-4.199006e-003
2.100320927779985e+000	2.380738e+000	-3.746009e-003
2.109027259765653e+000	2.449809e+000	-3.475008e-003
2.117431941162812e+000	2.488703e+000	-3.155608e-003
2.126735284028040e+000	2.499406e+000	-2.761264e-003
2.135325508731758e+000	2.478984e+000	-2.360351e-003
2.149295027859457e+000	2.384392e+000	-1.648010e-003
2.171824009107212e+000	2.079564e+000	-4.265095e-004
2.194001240271447e+000	1.617610e+000	7.948676e-004
2.216494633835479e+000	1.021777e+000	1.960140e-003
2.243465833901496e+000	2.050463e-001	3.127623e-003
2.272762708901496e+000	-7.053995e-001	4.018138e-003
2.297280521878230e+000	-1.399500e+000	4.378173e-003
2.318725225676456e+000	-1.900509e+000	4.339762e-003
2.340552717362786e+000	-2.269406e+000	3.998775e-003
2.352943682836220e+000	-2.404586e+000	3.674639e-003
2.360993250896617e+000	-2.461374e+000	3.401042e-003
2.369807784951663e+000	-2.494680e+000	3.053567e-003
2.380567835612590e+000	-2.493883e+000	2.580138e-003
2.391563356250360e+000	-2.446042e+000	2.045390e-003
2.409395438679284e+000	-2.270089e+000	1.104521e-003
2.430837022640728e+000	-1.909415e+000	-7.658420e-005
2.453124173423619e+000	-1.388947e+000	-1.291151e-003
2.475352185095683e+000	-7.620122e-001	-2.383802e-003
2.504649060095683e+000	1.459715e-001	-3.516574e-003
2.533945935095683e+000	1.034393e+000	-4.230346e-003
2.556742802938599e+000	1.635361e+000	-4.399474e-003
2.580164451749150e+000	2.113584e+000	-4.182620e-003
2.601920554613611e+000	2.395592e+000	-3.700982e-003
2.610225171504707e+000	2.457034e+000	-3.435910e-003
2.618877660263537e+000	2.492605e+000	-3.098500e-003
2.630220645991766e+000	2.494622e+000	-2.602963e-003
2.640998522121603e+000	2.449647e+000	-2.081530e-003
2.658483111273381e+000	2.281946e+000	-1.161467e-003
2.679961222701472e+000	1.927059e+000	2.072247e-005
2.702214127788706e+000	1.412627e+000	1.236414e-003
2.724058166226405e+000	8.006281e-001	2.318106e-003
2.753355041226405e+000	-1.053705e-001	3.468664e-003
2.782651916226405e+000	-9.972480e-001	4.205612e-003
2.805556609409629e+000	-1.606994e+000	4.395032e-003
2.829070717290824e+000	-2.095033e+000	4.198486e-003
2.850345669390796e+000	-2.380975e+000	3.745160e-003
2.859045759668563e+000	-2.449924e+000	3.474273e-003
2.867454220714631e+000	-2.488769e+000	3.154638e-003
2.876774839241707e+000	-2.499378e+000	2.759434e-003
2.885389911174678e+000	-2.478722e+000	2.357199e-003
2.899399553265893e+000	-2.383403e+000	1.642521e-003
2.921991159742030e+000	-2.076644e+000	4.173494e-004
2.944183969746806e+000	-1.613229e+000	-8.046584e-004
2.966682096735817e+000	-1.016399e+000	-1.969062e-003
2.993710867599015e+000	-1.973733e-001	-3.136528e-003
3.023007742599015e+000	7.127813e-001	-4.023713e-003
3.047411080962660e+000	1.402897e+000	-4.379153e-003
3.068837271084585e+000	1.902794e+000	-4.338640e-003
3.090642020155478e+000	2.270582e+000	-3.996764e-003
3.102943005310066e+000	2.404580e+000	-3.674580e-003
3.110992741794671e+000	2.461371e+000	-3.400868e-003
3.119807167657043e+000	2.494679e+000	-3.053400e-003
3.130567605350218e+000	2.493884e+000	-2.579960e-003
3.141562981663845e+000	2.446044e+000	-2.045224e-003
3.159394833812846e+000	2.270097e+000	-1.104376e-003
3.180836428657531e+000	1.909427e+000	7.671698e-005
3.203123553162411e+000	1.388963e+000	1.291268e-003
3.225352704612502e+000	7.619967e-001	2.383960e-003
3.254649579612502e+000	-1.459877e-001	3.516709e-003
3.283946454612502e+000	-1.034408e+000	4.230451e-003
3.306743290316535e+000	-1.635373e+000	4.399557e-003
3.330164915371063e+000	-2.113591e+000	4.182679e-003
3.351921595750926e+000	-2.395601e+000	3.701006e-003
3.360225952369442e+000	-2.457038e+000	3.435934e-003
3.368878604648423e+000	-2.492607e+000	3.098510e-003
3.380220998757108e+000	-2.494621e+000	2.602990e-003
3.390999096059101e+000	-2.449643e+000	2.081539e-003
3.408484038562940e+000	-2.281934e+000	1.161447e-003
3.429962175922709e+000	-1.927040e+000	-2.075286e-005
3.452215174009418e+000	-1.412600e+000	-1.236455e-003
3.474059236536378e+000	-8.005963e-001	-2.318147e-003
3.503356111536378e+000	1.054041e-001	-3.468696e-003
3.532652986536378e+000	9.972788e-001	-4.205631e-003
3.555557608552738e+000	1.607018e+000	-4.395038e-003
3.579071656886198e+000	2.095049e+000	-4.198478e-003
3.600346954746417e+000	2.380987e+000	-3.745131e-003
3.609046720784946e+000	2.449930e+000	-3.474249e-003
3.617455378234771e+000	2.488773e+000	-3.154601e-003
3.626776894297542e+000	2.499377e+000	-2.759352e-003
3.635393257138665e+000	2.478708e+000	-2.357048e-003
3.649404983661709e+000	2.383351e+000	-1.642246e-003
3.671999842988206e+000	2.076493e+000	-4.168822e-004
3.694193468024506e+000	1.613001e+000	8.051603e-004
3.716691854408424e+000	1.016119e+000	1.969521e-003
3.743723573596248e+000	1.969754e-001	3.136986e-003
3.773020448596248e+000	-7.131639e-001	4.023999e-003
3.797417873866809e+000	-1.403074e+000	4.379203e-003
3.818843111063599e+000	-1.902913e+000	4.338581e-003
3.840646688550442e+000	-2.270643e+000	3.996660e-003
3.852942986111943e+000	-2.404580e+000	3.674577e-003
3.860992727368962e+000	-2.461371e+000	3.400859e-003
3.869807150165643e+000	-2.494679e+000	3.053392e-003
3.880567598825597e+000	-2.493884e+000	2.579952e-003
3.891562971049714e+000	-2.446044e+000	2.045217e-003
3.909394816673594e+000	-2.270097e+000	1.104370e-003
3.930836408843588e+000	-1.909428e+000	-7.672268e-005
3.953123529870552e+000	-1.388964e+000	-1.291273e-003
3.975352726787095e+000	-7.619960e-001	-2.383966e-003
4.004649601787095e+000	1.459884e-001	-3.516713e-003
4.033946476787095e+000	1.034408e+000	-4.230455e-003
4.056743310137859e+000	1.635373e+000	-4.399560e-003
4.080164933225895e+000	2.113592e+000	-4.182681e-003
4.101921637022782e+000	2.395602e+000	-3.701006e-003
4.110225983323830e+000	2.457039e+000	-3.435934e-003
4.118878642084992e+000	2.492607e+000	-3.098510e-003
4.130221012741146e+000	2.494621e+000	-2.602991e-003
4.140999118810664e+000	2.449643e+000	-2.081539e-003
4.158484075321788e+000	2.281933e+000	-1.161446e-003
4.179962213635770e+000	1.927040e+000	2.075467e-005
4.202215215369944e+000	1.412599e+000	1.236457e-003
4.224059278746059e+000	8.005950e-001	2.318149e-003
4.253356153746059e+000	-1.054054e-001	3.468698e-003
4.282653028746059e+000	-9.972800e-001	4.205632e-003
4.305557647988855e+000	-1.607019e+000	4.395039e-003
4.329071694016349e+000	-2.095050e+000	4.198478e-003
4.350347006925841e+000	-2.380987e+000	3.745130e-003
4.359046759801826e+000	-2.449931e+000	3.474249e-003
4.367455425224822e+000	-2.488773e+000	3.154600e-003
4.376776977723436e+000	-2.499377e+000	2.759349e-003
4.385393392969527e+000	-2.478708e+000	2.357042e-003
4.399405204110744e+000	-2.383349e+000	1.642235e-003
4.422000195486485e+000	-2.076486e+000	4.168633e-004
4.444193853758367e+000	-1.612992e+000	-8.051807e-004
4.466692250896418e+000	-1.016107e+000	-1.969540e-003
4.493724089606345e+000	-1.969592e-001	-3.137004e-003
4.523020964606345e+000	7.131794e-001	-4.024011e-003
4.547418150033974e+000	1.403081e+000	-4.379205e-003
4.568843348626793e+000	1.902918e+000	-4.338578e-003
4.590646878634117e+000	2.270646e+000	-3.996655e-003
4.602942985514646e+000	2.404580e+000	-3.674577e-003
4.610992726920145e+000	2.461371e+000	-3.400859e-003
4.619807149621446e+000	2.494679e+000	-3.053392e-003
4.630567598622601e+000	2.493884e+000	-2.579951e-003
4.641562970719485e+000	2.446044e+000	-2.045217e-003
4.659394816140352e+000	2.270097e+000	-1.104370e-003
4.680836408211943e+000	1.909428e+000	7.672290e-005
4.703123529115450e+000	1.388964e+000	1.291273e-003
4.725352727569423e+000	7.619960e-001	2.383966e-003
4.754649602569423e+000	-1.459885e-001	3.516714e-003
4.783946477569423e+000	-1.034408e+000	4.230455e-003
4.806743310837902e+000	-1.635373e+000	4.399560e-003
4.830164933855913e+000	-2.113592e+000	4.182681e-003
4.851921638463762e+000	-2.395602e+000	3.701006e-003
4.860225984404583e+000	-2.457039e+000	3.435934e-003
4.868878643392067e+000	-2.492607e+000	3.098510e-003
4.880221013229390e+000	-2.494621e+000	2.602991e-003
4.890999119605022e+000	-2.449643e+000	2.081539e-003
4.908484076605202e+000	-2.281933e+000	1.161446e-003
4.929962214981964e+000	-1.927040e+000	-2.075471e-005
4.952215216870165e+000	-1.412599e+000	-1.236457e-003
4.974059280307783e+000	-8.005950e-001	-2.318150e-003
5.003356155307783e+000	1.054055e-001	-3.468698e-003
5.032653030307783e+000	9.972801e-001	-4.205632e-003
5.055557649456296e+000	1.607019e+000	-4.395039e-003
5.079071695405576e+000	2.095050e+000	-4.198478e-003
5.100347008900044e+000	2.380987e+000	-3.745130e-003
5.109046761278027e+000	2.449931e+000	-3.474248e-003
5.117455427002688e+000	2.488773e+000	-3.154600e-003
5.126776980879850e+000	2.499377e+000	-2.759349e-003
5.135393398108680e+000	2.478708e+000	-2.357041e-003
5.149405212451421e+000	2.383349e+000	-1.642235e-003
5.172000208823235e+000	2.076486e+000	-4.168625e-004
5.194193868390687e+000	1.612991e+000	8.051815e-004
5.216692265969209e+000	1.016107e+000	1.969540e-003
5.243724109220765e+000	1.969586e-001	3.137005e-003
5.273020984220765e+000	-7.131800e-001	4.024011e-003
5.297418160529348e+000	-1.403081e+000	4.379205e-003
5.318843357666807e+000	-1.902918e+000	4.338578e-003
5.340646885881213e+000	-2.270646e+000	3.996655e-003
5.352942985499803e+000	-2.404580e+000	3.674577e-003
5.360992726908992e+000	-2.461371e+000	3.400859e-003
5.369807149607922e+000	-2.494679e+000	3.053392e-003
5.380567598617557e+000	-2.493884e+000	2.579951e-003
5.391562970711279e+000	-2.446044e+000	2.045216e-003
5.409394816127103e+000	-2.270097e+000	1.104370e-003
5.430836408162055e+000	-1.909428e+000	-7.672290e-005
5.453123529031847e+000	-1.388964e+000	-1.291273e-003
5.475352727523737e+000	-7.619960e-001	-2.383966e-003
5.504649602523737e+000	1.459885e-001	-3.516714e-003
5.533946477523737e+000	1.034408e+000	-4.230455e-003
5.556743310790994e+000	1.635373e+000	-4.399560e-003
5.580164933808320e+000	2.113592e+000	-4.182681e-003
5.601921638413600e+000	2.395602e+000	-3.701006e-003
5.610225984366961e+000	2.457039e+000	-3.435934e-003
5.618878643346566e+000	2.492607e+000	-3.098510e-003
5.630221013212393e+000	2.494621e+000	-2.602991e-003
5.640999119577367e+000	2.449643e+000	-2.081539e-003
5.658484076560522e+000	2.281933e+000	-1.161446e-003
5.679962214910171e+000	1.927040e+000	2.075471e-005
5.702215216770953e+000	1.412599e+000	1.236457e-003
5.724059280179393e+000	8.005950e-001	2.318150e-003
5.753356155179393e+000	-1.054055e-001	3.468698e-003
5.782653030179393e+000	-9.972801e-001	4.205632e-003
5.805557649338366e+000	-1.607019e+000	4.395039e-003
5.829071695297269e+000	-2.095050e+000	4.198478e-003
5.850347008742802e+000	-2.380987e+000	3.745130e-003
5.859046761160450e+000	-2.449931e+000	3.474248e-003
5.867455426861083e+000	-2.488773e+000	3.154600e-003
5.876776980628446e+000	-2.499377e+000	2.759349e-003
5.885393397699352e+000	-2.478708e+000	2.357041e-003
5.899405211787095e+000	-2.383349e+000	1.642235e-003
5.922000207760977e+000	-2.076486e+000	4.168626e-004
5.944193867193597e+000	-1.612991e+000	-8.051814e-004
5.966692264710664e+000	-1.016107e+000	-1.969540e-003
5.993724107578903e+000	-1.969587e-001	-3.137005e-003
6.023020982578903e+000	7.131800e-001	-4.024011e-003
6.047418159657481e+000	1.403081e+000	-4.379205e-003
6.068843356915713e+000	1.902918e+000	-4.338578e-003
6.090646885278938e+000	2.270646e+000	-3.996655e-003
6.102942985502132e+000	2.404580e+000	-3.674577e-003
6.110992726910742e+000	2.461371e+000	-3.400859e-003
6.119807149610044e+000	2.494679e+000	-3.053392e-003
6.130567598618348e+000	2.493884e+000	-2.579951e-003
6.141562970712565e+000	2.446044e+000	-2.045216e-003
6.159394816129179e+000	2.270097e+000	-1.104370e-003
6.180836408195697e+000	1.909428e+000	7.672290e-005
6.203123529093918e+000	1.388964e+000	1.291273e-003
6.225352727598322e+000	7.619960e-001	2.383966e-003
6.254649602598322e+000	-1.459885e-001	3.516714e-003
6.283946477598322e+000	-1.034408e+000	4.230455e-003
6.306743310855039e+000	-1.635373e+000	4.399560e-003
6.330164933862445e+000	-2.113592e+000	4.182681e-003
6.351921638493679e+000	-2.395602e+000	3.701006e-003
6.360225984427022e+000	-2.457039e+000	3.435934e-003
6.368878643419204e+000	-2.492607e+000	3.098510e-003
6.380221013239527e+000	-2.494621e+000	2.602991e-003
6.390999119621514e+000	-2.449643e+000	2.081539e-003
6.408484076631846e+000	-2.281933e+000	1.161446e-003
6.429962215010345e+000	-1.927040e+000	-2.075471e-005
6.452215216902191e+000	-1.412599e+000	-1.236457e-003
6.474059280341617e+000	-8.005950e-001	-2.318150e-003
6.503356155341617e+000	1.054055e-001	-3.468698e-003
6.532653030341617e+000	9.972801e-001	-4.205632e-003
6.555557649480038e+000	1.607019e+000	-4.395039e-003
6.579071695420245e+000	2.095050e+000	-4.198478e-003
6.600347008923884e+000	2.380987e+000	-3.745130e-003
6.609046761295852e+000	2.449931e+000	-3.474248e-003
6.617455427024156e+000	2.488773e+000	-3.154600e-003
6.626776980917964e+000	2.499377e+000	-2.759349e-003
6.635393398170736e+000	2.478708e+000	-2.357041e-003
6.649405212552136e+000	2.383349e+000	-1.642235e-003
6.672000208984278e+000	2.076486e+000	-4.168625e-004
6.694193868566935e+000	1.612991e+000	8.051815e-004
6.716692266150723e+000	1.016107e+000	1.969540e-003
6.743724109454517e+000	1.969586e-001	3.137005e-003
6.773020984454517e+000	-7.131800e-001	4.024011e-003
6.797418160655368e+000	-1.403081e+000	4.379205e-003
6.818843357767827e+000	-1.902918e+000	4.338578e-003
6.840646885953661e+000	-2.270646e+000	3.996655e-003
6.852942985495812e+000	-2.404580e+000	3.674577e-003
