time	V(x_t)	V(y)
0.000000000000000e+000	-2.500000e+000	-1.310778e-002
5.000000000000000e+000	-2.500000e+000	-1.310778e-002
5.000000002201582e+000	-2.483488e+000	-1.310778e-002
5.000000006604747e+000	-2.450464e+000	-1.310778e-002
5.000000013264843e+000	-2.400514e+000	-1.310778e-002
5.000000019277082e+000	-2.355422e+000	-1.310778e-002
5.000000026269872e+000	-2.302976e+000	-1.310778e-002
5.000000035600724e+000	-2.232995e+000	-1.310778e-002
5.000000048771509e+000	-2.134214e+000	-1.310778e-002
5.000000067199744e+000	-1.996002e+000	-1.310778e-002
5.000000094629519e+000	-1.790279e+000	-1.310778e-002
5.000000126769692e+000	-1.549227e+000	-1.310778e-002
5.000000168446660e+000	-1.236650e+000	-1.310778e-002
5.000000220888336e+000	-8.433375e-001	-1.310778e-002
5.000000289780999e+000	-3.266425e-001	-1.310777e-002
5.000000354813780e+000	1.611034e-001	-1.310776e-002
5.000000452476698e+000	8.935753e-001	-1.310773e-002
5.000000543241532e+000	1.574311e+000	-1.310770e-002
5.000000695264218e+000	2.714482e+000	-1.310767e-002
5.000000794566442e+000	3.459248e+000	-1.310766e-002
5.000000833993228e+000	3.754949e+000	-1.310766e-002
5.000000912846801e+000	4.346351e+000	-1.310768e-002
5.000001000000000e+000	5.000000e+000	-1.310771e-002
5.000001008715320e+000	5.000000e+000	-1.310771e-002
5.000001026145960e+000	5.000000e+000	-1.310772e-002
5.000001130729800e+000	5.000000e+000	-1.310775e-002
5.000001239682608e+000	5.000000e+000	-1.310777e-002
5.000001406859336e+000	5.000000e+000	-1.310778e-002
5.000001631333277e+000	5.000000e+000	-1.310778e-002
5.000002052043135e+000	5.000000e+000	-1.310777e-002
5.000002777314256e+000	5.000000e+000	-1.310778e-002
5.000003618566840e+000	5.000000e+000	-1.310778e-002
5.000004834653120e+000	5.000000e+000	-1.310778e-002
5.000005705405496e+000	5.000000e+000	-1.310778e-002
5.000006728868295e+000	5.000000e+000	-1.310778e-002
5.000008076789346e+000	5.000000e+000	-1.310779e-002
5.000008658913696e+000	5.000000e+000	-1.310779e-002
5.000009016116787e+000	5.000000e+000	-1.310779e-002
5.000009161704331e+000	5.000000e+000	-1.310779e-002
5.000009269733690e+000	5.000000e+000	-1.310779e-002
5.000009384962818e+000	5.000000e+000	-1.310779e-002
5.000009450311177e+000	5.000000e+000	-1.310779e-002
5.000009534348195e+000	5.000000e+000	-1.310780e-002
5.000009608236972e+000	5.000000e+000	-1.310780e-002
5.000009690901964e+000	5.000000e+000	-1.310781e-002
5.000009792579705e+000	5.000000e+000	-1.310781e-002
5.000009906071513e+000	5.000000e+000	-1.310782e-002
5.000010052174809e+000	5.000000e+000	-1.310784e-002
5.000010180934072e+000	5.000000e+000	-1.310784e-002
5.000010335403023e+000	5.000000e+000	-1.310785e-002
5.000010503031713e+000	5.000000e+000	-1.310785e-002
5.000010724786139e+000	5.000000e+000	-1.310784e-002
5.000011045428046e+000	5.000000e+000	-1.310782e-002
5.000011363249411e+000	5.000000e+000	-1.310781e-002
5.000011655141866e+000	5.000000e+000	-1.310780e-002
5.000011966646789e+000	5.000000e+000	-1.310779e-002
5.000012299427710e+000	5.000000e+000	-1.310779e-002
5.000012738409774e+000	5.000000e+000	-1.310779e-002
5.000013272520352e+000	5.000000e+000	-1.310779e-002
5.000013953488899e+000	5.000000e+000	-1.310779e-002
5.000014830175510e+000	5.000000e+000	-1.310779e-002
5.000016213860781e+000	5.000000e+000	-1.310779e-002
5.000018459628895e+000	5.000000e+000	-1.310779e-002
5.000022951165121e+000	5.000000e+000	-1.310779e-002
5.002649858209595e+000	5.000000e+000	-1.309713e-002
5.005276765254068e+000	5.000000e+000	-1.306989e-002
5.007903672298541e+000	5.000000e+000	-1.302607e-002
5.010530579343015e+000	5.000000e+000	-1.296567e-002
5.013157486387488e+000	5.000000e+000	-1.288870e-002
5.015784393431961e+000	5.000000e+000	-1.279514e-002
5.018411300476434e+000	5.000000e+000	-1.268500e-002
5.036808632860200e+000	5.000000e+000	-1.161534e-002
5.066105507860200e+000	5.000000e+000	-9.102929e-003
5.095402382860200e+000	5.000000e+000	-5.858380e-003
5.124699257860200e+000	5.000000e+000	-2.103033e-003
5.153996132860200e+000	5.000000e+000	1.877684e-003
5.183293007860200e+000	5.000000e+000	5.861285e-003
5.212589882860200e+000	5.000000e+000	9.736314e-003
5.220704125000000e+000	5.000000e+000	1.076426e-002
5.224889392857143e+000	5.000000e+000	1.128498e-002
5.229074660714286e+000	5.000000e+000	1.179763e-002
5.233259928571429e+000	5.000000e+000	1.230222e-002
5.237445196428571e+000	5.000000e+000	1.279874e-002
5.241630464285715e+000	5.000000e+000	1.328719e-002
5.245815732142857e+000	5.000000e+000	1.376759e-002
5.250001000000000e+000	5.000000e+000	1.423991e-002
5.250001002201575e+000	4.983488e+000	1.423991e-002
5.250001006604725e+000	4.950465e+000	1.423991e-002
5.250001013264800e+000	4.900514e+000	1.423991e-002
5.250001019277027e+000	4.855422e+000	1.423991e-002
5.250001026269555e+000	4.802979e+000	1.423991e-002
5.250001035600279e+000	4.732998e+000	1.423992e-002
5.250001048770709e+000	4.634220e+000	1.423992e-002
5.250001067198681e+000	4.496010e+000	1.423992e-002
5.250001094627671e+000	4.290292e+000	1.423992e-002
5.250001126767475e+000	4.049244e+000	1.423993e-002
5.250001168443434e+000	3.736674e+000	1.423993e-002
5.250001220884192e+000	3.343369e+000	1.423993e-002
5.250001289777202e+000	2.826671e+000	1.423993e-002
5.250001354808170e+000	2.338939e+000	1.423993e-002
5.250001452473154e+000	1.606451e+000	1.423991e-002
5.250001543234640e+000	9.257402e-001	1.423989e-002
5.250001695261176e+000	-2.144588e-001	1.423988e-002
5.250001794572833e+000	-9.592962e-001	1.423988e-002
5.250001833997606e+000	-1.254982e+000	1.423989e-002
5.250001912847153e+000	-1.846354e+000	1.423991e-002
5.250002000000000e+000	-2.500000e+000	1.423995e-002
5.250002008715285e+000	-2.500000e+000	1.423995e-002
5.250002026145855e+000	-2.500000e+000	1.423996e-002
5.250002061006994e+000	-2.500000e+000	1.423997e-002
5.250002239681291e+000	-2.500000e+000	1.424003e-002
5.250002406857657e+000	-2.500000e+000	1.424007e-002
5.250002631330021e+000	-2.500000e+000	1.424009e-002
5.250003052037024e+000	-2.500000e+000	1.424013e-002
5.250003777331911e+000	-2.500000e+000	1.424022e-002
5.250004618601853e+000	-2.500000e+000	1.424032e-002
5.250005834740197e+000	-2.500000e+000	1.424045e-002
5.250006705442226e+000	-2.500000e+000	1.424055e-002
5.250007728901649e+000	-2.500000e+000	1.424067e-002
5.250009076868170e+000	-2.500000e+000	1.424082e-002
5.250009658883233e+000	-2.500000e+000	1.424088e-002
5.250010016028155e+000	-2.500000e+000	1.424092e-002
5.250010161570828e+000	-2.500000e+000	1.424094e-002
5.250010269579374e+000	-2.500000e+000	1.424096e-002
5.250010384805830e+000	-2.500000e+000	1.424097e-002
5.250010450136651e+000	-2.500000e+000	1.424098e-002
5.250010534178628e+000	-2.500000e+000	1.424099e-002
5.250010608077184e+000	-2.500000e+000	1.424101e-002
5.250010690744064e+000	-2.500000e+000	1.424102e-002
5.250010792426262e+000	-2.500000e+000	1.424104e-002
5.250010905921933e+000	-2.500000e+000	1.424106e-002
5.250011052044337e+000	-2.500000e+000	1.424109e-002
5.250011180834926e+000	-2.500000e+000	1.424111e-002
5.250011335331461e+000	-2.500000e+000	1.424113e-002
5.250011502964147e+000	-2.500000e+000	1.424115e-002
5.250011724754926e+000	-2.500000e+000	1.424117e-002
5.250012045542660e+000	-2.500000e+000	1.424119e-002
5.250012363260901e+000	-2.500000e+000	1.424121e-002
5.250012655078417e+000	-2.500000e+000	1.424123e-002
5.250012966581573e+000	-2.500000e+000	1.424126e-002
5.250013299361641e+000	-2.500000e+000	1.424130e-002
5.250013738360100e+000	-2.500000e+000	1.424134e-002
5.250014272415771e+000	-2.500000e+000	1.424140e-002
5.250014953355664e+000	-2.500000e+000	1.424148e-002
5.250015829971186e+000	-2.500000e+000	1.424158e-002
5.250025971433580e+000	-2.500000e+000	1.424271e-002
5.250036112895972e+000	-2.500000e+000	1.424385e-002
5.250046254358366e+000	-2.500000e+000	1.424498e-002
5.250056395820758e+000	-2.500000e+000	1.424612e-002
5.250066537283152e+000	-2.500000e+000	1.424725e-002
5.250076678745544e+000	-2.500000e+000	1.424838e-002
5.250086820207938e+000	-2.500000e+000	1.424952e-002
5.255332015686970e+000	-2.500000e+000	1.477936e-002
5.260577211166003e+000	-2.500000e+000	1.523916e-002
5.265822406645035e+000	-2.500000e+000	1.562892e-002
5.271067602124068e+000	-2.500000e+000	1.594866e-002
5.276312797603101e+000	-2.500000e+000	1.619835e-002
5.281557993082133e+000	-2.500000e+000	1.637801e-002
5.286803188561166e+000	-2.500000e+000	1.648763e-002
5.316100063561166e+000	-2.500000e+000	1.649808e-002
5.345396938561166e+000	-2.500000e+000	1.540306e-002
5.374693813561166e+000	-2.500000e+000	1.340079e-002
5.403990688561166e+000	-2.500000e+000	1.080429e-002
5.433287563561166e+000	-2.500000e+000	7.871954e-003
5.462584438561166e+000	-2.500000e+000	4.810703e-003
5.491881313561166e+000	-2.500000e+000	1.780384e-003
5.521178188561166e+000	-2.500000e+000	-1.100927e-003
5.550475063561166e+000	-2.500000e+000	-3.751257e-003
5.579771938561166e+000	-2.500000e+000	-6.118995e-003
5.609068813561166e+000	-2.500000e+000	-8.177344e-003
5.638365688561166e+000	-2.500000e+000	-9.919152e-003
5.667662563561166e+000	-2.500000e+000	-1.135223e-002
5.696959438561166e+000	-2.500000e+000	-1.249523e-002
5.726256313561166e+000	-2.500000e+000	-1.337416e-002
5.755553188561166e+000	-2.500000e+000	-1.401937e-002
5.784850063561166e+000	-2.500000e+000	-1.446327e-002
5.814146938561166e+000	-2.500000e+000	-1.473840e-002
5.843443813561166e+000	-2.500000e+000	-1.487609e-002
5.872740688561166e+000	-2.500000e+000	-1.490542e-002
5.902037563561166e+000	-2.500000e+000	-1.485264e-002
5.931334438561166e+000	-2.500000e+000	-1.474072e-002
5.960631313561166e+000	-2.500000e+000	-1.458931e-002
5.989928188561166e+000	-2.500000e+000	-1.441469e-002
6.019225063561166e+000	-2.500000e+000	-1.423000e-002
6.048521938561166e+000	-2.500000e+000	-1.404547e-002
6.077818813561166e+000	-2.500000e+000	-1.386872e-002
6.107115688561166e+000	-2.500000e+000	-1.370513e-002
6.136412563561166e+000	-2.500000e+000	-1.355816e-002
6.165709438561166e+000	-2.500000e+000	-1.342970e-002
6.195006313561166e+000	-2.500000e+000	-1.332041e-002
6.224303188561166e+000	-2.500000e+000	-1.322996e-002
6.253600063561166e+000	-2.500000e+000	-1.315736e-002
6.282896938561166e+000	-2.500000e+000	-1.310108e-002
6.312193813561166e+000	-2.500000e+000	-1.305934e-002
6.341490688561166e+000	-2.500000e+000	-1.303018e-002
6.370787563561166e+000	-2.500000e+000	-1.301164e-002
6.400084438561166e+000	-2.500000e+000	-1.300178e-002
6.429381313561166e+000	-2.500000e+000	-1.299883e-002
6.458678188561166e+000	-2.500000e+000	-1.300115e-002
6.487975063561166e+000	-2.500000e+000	-1.300732e-002
6.517271938561166e+000	-2.500000e+000	-1.301610e-002
6.546568813561166e+000	-2.500000e+000	-1.302646e-002
6.575865688561166e+000	-2.500000e+000	-1.303758e-002
6.605162563561166e+000	-2.500000e+000	-1.304879e-002
6.634459438561166e+000	-2.500000e+000	-1.305962e-002
6.663756313561166e+000	-2.500000e+000	-1.306971e-002
6.693053188561166e+000	-2.500000e+000	-1.307882e-002
6.722350063561166e+000	-2.500000e+000	-1.308683e-002
6.751646938561166e+000	-2.500000e+000	-1.309368e-002
6.780943813561166e+000	-2.500000e+000	-1.309938e-002
6.810240688561166e+000	-2.500000e+000	-1.310399e-002
6.839537563561166e+000	-2.500000e+000	-1.310758e-002
6.868834438561166e+000	-2.500000e+000	-1.311028e-002
6.898131313561166e+000	-2.500000e+000	-1.311219e-002
6.927428188561166e+000	-2.500000e+000	-1.311343e-002
6.956725063561166e+000	-2.500000e+000	-1.311412e-002
6.986021938561166e+000	-2.500000e+000	-1.311437e-002
7.015318813561166e+000	-2.500000e+000	-1.311429e-002
7.044615688561166e+000	-2.500000e+000	-1.311396e-002
7.073912563561166e+000	-2.500000e+000	-1.311345e-002
7.103209438561166e+000	-2.500000e+000	-1.311284e-002
7.132506313561166e+000	-2.500000e+000	-1.311217e-002
7.161803188561166e+000	-2.500000e+000	-1.311149e-002
7.220396938561166e+000	-2.500000e+000	-1.311021e-002
7.278990688561166e+000	-2.500000e+000	-1.310914e-002
7.320843367132595e+000	-2.500000e+000	-1.310860e-002
7.362696045704023e+000	-2.500000e+000	-1.310815e-002
7.404548724275451e+000	-2.500000e+000	-1.310780e-002
7.446401402846880e+000	-2.500000e+000	-1.310755e-002
7.488254081418309e+000	-2.500000e+000	-1.310740e-002
7.530106759989737e+000	-2.500000e+000	-1.310734e-002
7.571959438561166e+000	-2.500000e+000	-1.310739e-002
7.659850063561166e+000	-2.500000e+000	-1.310751e-002
7.747740688561166e+000	-2.500000e+000	-1.310761e-002
7.835631313561166e+000	-2.500000e+000	-1.310769e-002
7.923521938561166e+000	-2.500000e+000	-1.310775e-002
8.011412563561166e+000	-2.500000e+000	-1.310779e-002
8.099303188561166e+000	-2.500000e+000	-1.310781e-002
8.187193813561166e+000	-2.500000e+000	-1.310780e-002
1.723915808553617e+001	-2.500000e+000	-1.310778e-002
2.998329871053617e+001	-2.500000e+000	-1.310778e-002
3.000000000000000e+001	-2.500000e+000	-1.310778e-002
