time	V(x_t)	V(y)
0.000000000000000e+000	-2.500000e+000	-1.310778e-002
2.500000000000000e-001	-2.500000e+000	-1.310778e-002
2.500000022024186e-001	-2.488988e+000	-1.310778e-002
2.500000066072559e-001	-2.466964e+000	-1.310778e-002
2.500000154169304e-001	-2.422915e+000	-1.310778e-002
2.500000235766224e-001	-2.382117e+000	-1.310778e-002
2.500000311853604e-001	-2.344073e+000	-1.310778e-002
2.500000422797404e-001	-2.288601e+000	-1.310778e-002
2.500000575385836e-001	-2.212307e+000	-1.310778e-002
2.500000809659156e-001	-2.095170e+000	-1.310778e-002
2.500001113799099e-001	-1.943100e+000	-1.310778e-002
2.500001477741646e-001	-1.761129e+000	-1.310778e-002
2.500001943796040e-001	-1.528102e+000	-1.310778e-002
2.500002555408333e-001	-1.222296e+000	-1.310778e-002
2.500003257702784e-001	-8.711486e-001	-1.310777e-002
2.500003968641883e-001	-5.156791e-001	-1.310775e-002
2.500005009543517e-001	4.771758e-003	-1.310772e-002
2.500006013151413e-001	5.065757e-001	-1.310769e-002
2.500007724842979e-001	1.362422e+000	-1.310767e-002
2.500010000000000e-001	2.500000e+000	-1.310769e-002
2.500010227515702e-001	2.500000e+000	-1.310770e-002
2.500010682547106e-001	2.500000e+000	-1.310772e-002
2.500011592609914e-001	2.500000e+000	-1.310774e-002
2.500012496591547e-001	2.500000e+000	-1.310777e-002
2.500013787571667e-001	2.500000e+000	-1.310778e-002
2.500015253746897e-001	2.500000e+000	-1.310778e-002
2.500018186097358e-001	2.500000e+000	-1.310777e-002
2.500023659169145e-001	2.500000e+000	-1.310777e-002
2.500031628055418e-001	2.500000e+000	-1.310778e-002
2.500041550144978e-001	2.500000e+000	-1.310778e-002
2.500055207612938e-001	2.500000e+000	-1.310779e-002
2.500060320533711e-001	2.500000e+000	-1.310779e-002
2.500062828228714e-001	2.500000e+000	-1.310779e-002
2.500063809221788e-001	2.500000e+000	-1.310779e-002
2.500064871954573e-001	2.500000e+000	-1.310779e-002
2.500065577472534e-001	2.500000e+000	-1.310780e-002
2.500066236866668e-001	2.500000e+000	-1.310780e-002
2.500067046699918e-001	2.500000e+000	-1.310781e-002
2.500067986367397e-001	2.500000e+000	-1.310782e-002
2.500068990880062e-001	2.500000e+000	-1.310783e-002
2.500070183181471e-001	2.500000e+000	-1.310784e-002
2.500071752683391e-001	2.500000e+000	-1.310785e-002
2.500073245967759e-001	2.500000e+000	-1.310785e-002
2.500074920071148e-001	2.500000e+000	-1.310785e-002
2.500076658159278e-001	2.500000e+000	-1.310784e-002
2.500079128002124e-001	2.500000e+000	-1.310782e-002
2.500082020616978e-001	2.500000e+000	-1.310781e-002
2.500085286751431e-001	2.500000e+000	-1.310780e-002
2.500088461586005e-001	2.500000e+000	-1.310779e-002
2.500091842226773e-001	2.500000e+000	-1.310779e-002
2.500095823631869e-001	2.500000e+000	-1.310779e-002
2.500101205035739e-001	2.500000e+000	-1.310779e-002
2.500107930813466e-001	2.500000e+000	-1.310779e-002
2.500116572298836e-001	2.500000e+000	-1.310779e-002
2.500129249858480e-001	2.500000e+000	-1.310779e-002
2.500151803043171e-001	2.500000e+000	-1.310779e-002
2.500194191191310e-001	2.500000e+000	-1.310779e-002
2.524985202402821e-001	2.500000e+000	-1.310149e-002
2.549776213614332e-001	2.500000e+000	-1.308528e-002
2.574567224825843e-001	2.500000e+000	-1.305914e-002
2.599358236037354e-001	2.500000e+000	-1.302308e-002
2.624149247248865e-001	2.500000e+000	-1.297710e-002
2.648940258460376e-001	2.500000e+000	-1.292119e-002
2.673731269671887e-001	2.500000e+000	-1.285536e-002
2.847353124448742e-001	2.500000e+000	-1.220686e-002
3.140321874448742e-001	2.500000e+000	-1.057263e-002
3.433290624448742e-001	2.500000e+000	-8.441958e-003
3.726259374448742e-001	2.500000e+000	-5.955611e-003
4.019228124448742e-001	2.500000e+000	-3.306997e-003
4.312196874448742e-001	2.500000e+000	-6.472688e-004
4.605165624448742e-001	2.500000e+000	1.942835e-003
4.707041250000000e-001	2.500000e+000	2.808268e-003
4.796258748897484e-001	2.500000e+000	3.541051e-003
4.872207508820128e-001	2.500000e+000	4.145042e-003
4.890465007560110e-001	2.500000e+000	4.288020e-003
4.908722506300092e-001	2.500000e+000	4.429972e-003
4.926980005040073e-001	2.500000e+000	4.570896e-003
4.945237503780054e-001	2.500000e+000	4.710793e-003
4.963495002520036e-001	2.500000e+000	4.849663e-003
4.981752501260018e-001	2.500000e+000	4.987505e-003
5.000009999999999e-001	2.500000e+000	5.124321e-003
5.000010022024111e-001	2.488988e+000	5.124321e-003
5.000010066072335e-001	2.466964e+000	5.124321e-003
5.000010154168781e-001	2.422916e+000	5.124322e-003
5.000010235765450e-001	2.382117e+000	5.124323e-003
5.000010311852656e-001	2.344074e+000	5.124323e-003
5.000010422796137e-001	2.288602e+000	5.124324e-003
5.000010575384063e-001	2.212308e+000	5.124325e-003
5.000010809656421e-001	2.095172e+000	5.124327e-003
5.000011113796323e-001	1.943102e+000	5.124329e-003
5.000011477737759e-001	1.761131e+000	5.124332e-003
5.000011943791498e-001	1.528104e+000	5.124334e-003
5.000012555401558e-001	1.222299e+000	5.124335e-003
5.000013257698093e-001	8.711510e-001	5.124331e-003
5.000013968634687e-001	5.156826e-001	5.124320e-003
5.000015009539496e-001	-4.769748e-003	5.124296e-003
5.000016013164547e-001	-5.065823e-001	5.124275e-003
5.000017724873586e-001	-1.362437e+000	5.124269e-003
5.000020000000000e-001	-2.500000e+000	5.124305e-003
5.000020227512640e-001	-2.500000e+000	5.124315e-003
5.000020682537923e-001	-2.500000e+000	5.124334e-003
5.000021592588489e-001	-2.500000e+000	5.124369e-003
5.000022496565745e-001	-2.500000e+000	5.124398e-003
5.000023787528666e-001	-2.500000e+000	5.124422e-003
5.000025253698334e-001	-2.500000e+000	5.124434e-003
5.000028186037668e-001	-2.500000e+000	5.124447e-003
5.000033658991694e-001	-2.500000e+000	5.124487e-003
5.000041628026161e-001	-2.500000e+000	5.124554e-003
5.000051550084854e-001	-2.500000e+000	5.124629e-003
5.000065207817362e-001	-2.500000e+000	5.124735e-003
5.000070320770269e-001	-2.500000e+000	5.124774e-003
5.000072828396722e-001	-2.500000e+000	5.124793e-003
5.000073809368795e-001	-2.500000e+000	5.124802e-003
5.000074872121680e-001	-2.500000e+000	5.124815e-003
5.000075577609272e-001	-2.500000e+000	5.124824e-003
5.000076237001299e-001	-2.500000e+000	5.124833e-003
5.000077046835613e-001	-2.500000e+000	5.124846e-003
5.000077986524540e-001	-2.500000e+000	5.124863e-003
5.000078991055998e-001	-2.500000e+000	5.124880e-003
5.000080183385071e-001	-2.500000e+000	5.124900e-003
5.000081752959177e-001	-2.500000e+000	5.124922e-003
5.000083246321571e-001	-2.500000e+000	5.124935e-003
5.000084920393974e-001	-2.500000e+000	5.124943e-003
5.000086658576819e-001	-2.500000e+000	5.124946e-003
5.000089128511753e-001	-2.500000e+000	5.124951e-003
5.000092021079137e-001	-2.500000e+000	5.124960e-003
5.000095287323205e-001	-2.500000e+000	5.124974e-003
5.000098462032087e-001	-2.500000e+000	5.124991e-003
5.000101842756409e-001	-2.500000e+000	5.125012e-003
5.000105824110330e-001	-2.500000e+000	5.125040e-003
5.000111205661140e-001	-2.500000e+000	5.125079e-003
5.000117931214266e-001	-2.500000e+000	5.125129e-003
5.000126572847031e-001	-2.500000e+000	5.125193e-003
5.000222435342698e-001	-2.500000e+000	5.125908e-003
5.000318297838365e-001	-2.500000e+000	5.126624e-003
5.000414160334032e-001	-2.500000e+000	5.127339e-003
5.000510022829698e-001	-2.500000e+000	5.128054e-003
5.000605885325365e-001	-2.500000e+000	5.128769e-003
5.000701747821033e-001	-2.500000e+000	5.129483e-003
5.000797610316700e-001	-2.500000e+000	5.130198e-003
5.050305754154153e-001	-2.500000e+000	5.466253e-003
5.099813897991607e-001	-2.500000e+000	5.759703e-003
5.149322041829061e-001	-2.500000e+000	6.010547e-003
5.198830185666515e-001	-2.500000e+000	6.218784e-003
5.248338329503969e-001	-2.500000e+000	6.384416e-003
5.297846473341423e-001	-2.500000e+000	6.507441e-003
5.347354617178877e-001	-2.500000e+000	6.587861e-003
5.640323367178877e-001	-2.500000e+000	6.652469e-003
5.933292117178877e-001	-2.500000e+000	5.973815e-003
6.226260867178877e-001	-2.500000e+000	4.674228e-003
6.519229617178877e-001	-2.500000e+000	2.964996e-003
6.812198367178877e-001	-2.500000e+000	1.020906e-003
7.105167117178877e-001	-2.500000e+000	-1.023713e-003
7.207031250000000e-001	-2.500000e+000	-1.741557e-003
7.296271734357753e-001	-2.500000e+000	-2.367755e-003
7.321519031284494e-001	-2.500000e+000	-2.543536e-003
7.372013625137974e-001	-2.500000e+000	-2.892723e-003
7.399010812293039e-001	-2.500000e+000	-3.078239e-003
7.413437839108319e-001	-2.500000e+000	-3.177177e-003
7.427864865923599e-001	-2.500000e+000	-3.275802e-003
7.442291892738879e-001	-2.500000e+000	-3.374113e-003
7.456718919554159e-001	-2.500000e+000	-3.472110e-003
7.471145946369440e-001	-2.500000e+000	-3.569793e-003
7.485572973184720e-001	-2.500000e+000	-3.667163e-003
7.500000000000000e-001	-2.500000e+000	-3.764220e-003
7.500000020604546e-001	-2.489698e+000	-3.764220e-003
7.500000061813638e-001	-2.469093e+000	-3.764220e-003
7.500000144231821e-001	-2.427884e+000	-3.764221e-003
7.500000221379577e-001	-2.389310e+000	-3.764221e-003
7.500000294111525e-001	-2.352944e+000	-3.764221e-003
7.500000399359051e-001	-2.300320e+000	-3.764222e-003
7.500000542670464e-001	-2.228665e+000	-3.764223e-003
7.500000760095769e-001	-2.119952e+000	-3.764225e-003
7.500001064041619e-001	-1.967979e+000	-3.764227e-003
7.500001408253858e-001	-1.795873e+000	-3.764229e-003
7.500001863023964e-001	-1.568488e+000	-3.764231e-003
7.500002435684505e-001	-1.282158e+000	-3.764232e-003
7.500003101115668e-001	-9.494421e-001	-3.764229e-003
7.500003804404112e-001	-5.977979e-001	-3.764219e-003
7.500004770145442e-001	-1.149273e-001	-3.764197e-003
7.500005731290498e-001	3.656453e-001	-3.764174e-003
7.500007265308588e-001	1.132654e+000	-3.764150e-003
7.500007786219840e-001	1.393110e+000	-3.764150e-003
7.500008828042343e-001	1.914021e+000	-3.764169e-003
7.500009999999999e-001	2.500000e+000	-3.764204e-003
7.500010117195765e-001	2.500000e+000	-3.764209e-003
7.500010351587296e-001	2.500000e+000	-3.764219e-003
7.500010820370359e-001	2.500000e+000	-3.764237e-003
7.500011522384925e-001	2.500000e+000	-3.764262e-003
7.500012249191725e-001	2.500000e+000	-3.764283e-003
7.500013625080934e-001	2.500000e+000	-3.764307e-003
7.500015099186601e-001	2.500000e+000	-3.764318e-003
7.500018047397935e-001	2.500000e+000	-3.764330e-003
7.500022584701152e-001	2.500000e+000	-3.764360e-003
7.500031066568047e-001	2.500000e+000	-3.764425e-003
7.500040060368708e-001	2.500000e+000	-3.764487e-003
7.500054264894825e-001	2.500000e+000	-3.764586e-003
7.500056435852309e-001	2.500000e+000	-3.764601e-003
7.500059922974826e-001	2.500000e+000	-3.764624e-003
7.500061481611592e-001	2.500000e+000	-3.764634e-003
7.500062451847351e-001	2.500000e+000	-3.764642e-003
7.500063385993301e-001	2.500000e+000	-3.764650e-003
7.500064448872609e-001	2.500000e+000	-3.764661e-003
7.500065225445061e-001	2.500000e+000	-3.764671e-003
7.500065979230246e-001	2.500000e+000	-3.764681e-003
7.500066810885855e-001	2.500000e+000	-3.764693e-003
7.500067698157500e-001	2.500000e+000	-3.764707e-003
7.500068753771310e-001	2.500000e+000	-3.764725e-003
7.500069934074073e-001	2.500000e+000	-3.764743e-003
7.500071604225624e-001	2.500000e+000	-3.764764e-003
7.500073173359866e-001	2.500000e+000	-3.764778e-003
7.500074847074069e-001	2.500000e+000	-3.764784e-003
7.500076662995189e-001	2.500000e+000	-3.764787e-003
7.500079242618923e-001	2.500000e+000	-3.764791e-003
7.500082191629632e-001	2.500000e+000	-3.764798e-003
7.500085564405866e-001	2.500000e+000	-3.764810e-003
7.500088626734338e-001	2.500000e+000	-3.764824e-003
7.500092102983283e-001	2.500000e+000	-3.764844e-003
7.500096101605238e-001	2.500000e+000	-3.764869e-003
7.500101726017440e-001	2.500000e+000	-3.764906e-003
7.500108393431307e-001	2.500000e+000	-3.764950e-003
7.500117397213701e-001	2.500000e+000	-3.765010e-003
7.500218629601055e-001	2.500000e+000	-3.765690e-003
7.500319861988409e-001	2.500000e+000	-3.766369e-003
7.500421094375763e-001	2.500000e+000	-3.767049e-003
7.500522326763117e-001	2.500000e+000	-3.767728e-003
7.500623559150471e-001	2.500000e+000	-3.768407e-003
7.500724791537825e-001	2.500000e+000	-3.769086e-003
7.500826023925179e-001	2.500000e+000	-3.769764e-003
7.553128333909270e-001	2.500000e+000	-4.086187e-003
7.605430643893363e-001	2.500000e+000	-4.360143e-003
7.657732953877454e-001	2.500000e+000	-4.591633e-003
7.710035263861546e-001	2.500000e+000	-4.780657e-003
7.762337573845638e-001	2.500000e+000	-4.927215e-003
7.814639883829729e-001	2.500000e+000	-5.031307e-003
7.866942193813821e-001	2.500000e+000	-5.092932e-003
8.159910943813821e-001	2.500000e+000	-5.071854e-003
8.452879693813821e-001	2.500000e+000	-4.378711e-003
8.745848443813821e-001	2.500000e+000	-3.134583e-003
9.038817193813821e-001	2.500000e+000	-1.530733e-003
9.331785943813821e-001	2.500000e+000	2.746857e-004
9.604987344321703e-001	2.500000e+000	2.035898e-003
9.707041250000000e-001	2.500000e+000	2.698649e-003
9.795902188643405e-001	2.500000e+000	3.272590e-003
9.822288122713191e-001	2.500000e+000	3.441614e-003
9.875059990852763e-001	2.500000e+000	3.777371e-003
9.894466263720857e-001	2.500000e+000	3.900115e-003
9.906042341684013e-001	2.500000e+000	3.973185e-003
9.917618419647168e-001	2.500000e+000	4.046070e-003
9.929194497610324e-001	2.500000e+000	4.118772e-003
9.940770575573480e-001	2.500000e+000	4.191290e-003
9.952346653536636e-001	2.500000e+000	4.263623e-003
9.963922731499791e-001	2.500000e+000	4.335773e-003
9.975498809462947e-001	2.500000e+000	4.407739e-003
1.000001000000000e+000	2.500000e+000	4.559543e-003
1.000001002202419e+000	2.488988e+000	4.559543e-003
1.000001006607256e+000	2.466964e+000	4.559544e-003
1.000001015416930e+000	2.422915e+000	4.559544e-003
1.000001023576622e+000	2.382117e+000	4.559545e-003
1.000001031185360e+000	2.344073e+000	4.559545e-003
1.000001042279739e+000	2.288601e+000	4.559546e-003
1.000001057538583e+000	2.212307e+000	4.559547e-003
1.000001080965914e+000	2.095170e+000	4.559549e-003
1.000001111379909e+000	1.943100e+000	4.559550e-003
1.000001147774163e+000	1.761129e+000	4.559552e-003
1.000001194379603e+000	1.528102e+000	4.559554e-003
1.000001255540831e+000	1.222296e+000	4.559554e-003
1.000001325770282e+000	8.711486e-001	4.559550e-003
1.000001396864198e+000	5.156790e-001	4.559538e-003
1.000001500954382e+000	-4.771912e-003	4.559512e-003
1.000001601317178e+000	-5.065859e-001	4.559490e-003
1.000001772487994e+000	-1.362440e+000	4.559482e-003
1.000002000000000e+000	-2.500000e+000	4.559515e-003
1.000002022751201e+000	-2.500000e+000	4.559524e-003
1.000002068253602e+000	-2.500000e+000	4.559543e-003
1.000002159258404e+000	-2.500000e+000	4.559577e-003
1.000002249656039e+000	-2.500000e+000	4.559604e-003
1.000002378751973e+000	-2.500000e+000	4.559627e-003
1.000002525368825e+000	-2.500000e+000	4.559637e-003
1.000002818602527e+000	-2.500000e+000	4.559646e-003
1.000003365895484e+000	-2.500000e+000	4.559679e-003
1.000004162798479e+000	-2.500000e+000	4.559736e-003
1.000005155000826e+000	-2.500000e+000	4.559799e-003
1.000006520772105e+000	-2.500000e+000	4.559886e-003
1.000007032066671e+000	-2.500000e+000	4.559918e-003
1.000007282832920e+000	-2.500000e+000	4.559935e-003
1.000007380931209e+000	-2.500000e+000	4.559943e-003
1.000007487205735e+000	-2.500000e+000	4.559954e-003
1.000007557755499e+000	-2.500000e+000	4.559962e-003
1.000007623694888e+000	-2.500000e+000	4.559970e-003
1.000007704678266e+000	-2.500000e+000	4.559983e-003
1.000007798646225e+000	-2.500000e+000	4.559997e-003
1.000007899098735e+000	-2.500000e+000	4.560014e-003
1.000008018330483e+000	-2.500000e+000	4.560032e-003
1.000008175285187e+000	-2.500000e+000	4.560052e-003
1.000008324618433e+000	-2.500000e+000	4.560064e-003
1.000008492026822e+000	-2.500000e+000	4.560069e-003
1.000008665841427e+000	-2.500000e+000	4.560070e-003
1.000008912831309e+000	-2.500000e+000	4.560071e-003
1.000009202085040e+000	-2.500000e+000	4.560077e-003
1.000009528707451e+000	-2.500000e+000	4.560086e-003
1.000009846179957e+000	-2.500000e+000	4.560099e-003
1.000010184248885e+000	-2.500000e+000	4.560116e-003
1.000010582379427e+000	-2.500000e+000	4.560139e-003
1.000011120522936e+000	-2.500000e+000	4.560171e-003
1.000011793072625e+000	-2.500000e+000	4.560212e-003
1.000012657217012e+000	-2.500000e+000	4.560265e-003
1.000022243005305e+000	-2.500000e+000	4.560857e-003
1.000031828793598e+000	-2.500000e+000	4.561449e-003
1.000041414581891e+000	-2.500000e+000	4.562040e-003
1.000051000370184e+000	-2.500000e+000	4.562632e-003
1.000060586158477e+000	-2.500000e+000	4.563223e-003
1.000070171946770e+000	-2.500000e+000	4.563813e-003
1.000079757735063e+000	-2.500000e+000	4.564404e-003
1.005030330367981e+000	-2.500000e+000	4.839558e-003
1.009980903000899e+000	-2.500000e+000	5.076179e-003
1.014931475633817e+000	-2.500000e+000	5.274266e-003
1.019882048266736e+000	-2.500000e+000	5.433820e-003
1.024832620899654e+000	-2.500000e+000	5.554840e-003
1.029783193532572e+000	-2.500000e+000	5.637327e-003
1.034733766165490e+000	-2.500000e+000	5.681281e-003
1.064030641165490e+000	-2.500000e+000	5.573564e-003
1.093327516165490e+000	-2.500000e+000	4.802054e-003
1.122624391165490e+000	-2.500000e+000	3.481820e-003
1.151921266165490e+000	-2.500000e+000	1.806715e-003
1.181218141165490e+000	-2.500000e+000	-6.355347e-005
1.208826623845816e+000	-2.500000e+000	-1.898234e-003
1.220703125000000e+000	-2.500000e+000	-2.691278e-003
1.226246997691632e+000	-2.500000e+000	-3.057679e-003
1.228415961317829e+000	-2.500000e+000	-3.201033e-003
1.230584924944026e+000	-2.500000e+000	-3.343709e-003
1.232753888570224e+000	-2.500000e+000	-3.485706e-003
1.234922852196421e+000	-2.500000e+000	-3.627025e-003
1.237091815822618e+000	-2.500000e+000	-3.767665e-003
1.239260779448816e+000	-2.500000e+000	-3.907627e-003
1.241429743075013e+000	-2.500000e+000	-4.046911e-003
1.242654065492868e+000	-2.500000e+000	-4.125472e-003
1.243878387910724e+000	-2.500000e+000	-4.203796e-003
1.245102710328579e+000	-2.500000e+000	-4.281884e-003
1.246327032746434e+000	-2.500000e+000	-4.359735e-003
1.247551355164289e+000	-2.500000e+000	-4.437351e-003
1.248775677582145e+000	-2.500000e+000	-4.514731e-003
1.250000000000000e+000	-2.500000e+000	-4.591874e-003
1.250000002201269e+000	-2.488994e+000	-4.591874e-003
1.250000006603807e+000	-2.466981e+000	-4.591875e-003
1.250000015408882e+000	-2.422956e+000	-4.591875e-003
1.250000023564762e+000	-2.382176e+000	-4.591876e-003
1.250000031170848e+000	-2.344146e+000	-4.591876e-003
1.250000042260435e+000	-2.288698e+000	-4.591877e-003
1.250000057511657e+000	-2.212442e+000	-4.591878e-003
1.250000080924633e+000	-2.095377e+000	-4.591879e-003
1.250000111337704e+000	-1.943311e+000	-4.591881e-003
1.250000147715258e+000	-1.761424e+000	-4.591884e-003
1.250000194310551e+000	-1.528447e+000	-4.591885e-003
1.250000255438221e+000	-1.222809e+000	-4.591885e-003
1.250000325698237e+000	-8.715088e-001	-4.591880e-003
1.250000396753094e+000	-5.162345e-001	-4.591869e-003
1.250000500887904e+000	4.439521e-003	-4.591844e-003
1.250000601179822e+000	5.058991e-001	-4.591822e-003
1.250000772341495e+000	1.361707e+000	-4.591813e-003
1.250001000000000e+000	2.500000e+000	-4.591847e-003
1.250001022765851e+000	2.500000e+000	-4.591857e-003
1.250001068297552e+000	2.500000e+000	-4.591875e-003
1.250001159360954e+000	2.500000e+000	-4.591909e-003
1.250001249779542e+000	2.500000e+000	-4.591936e-003
1.250001378957799e+000	2.500000e+000	-4.591960e-003
1.250001525601289e+000	2.500000e+000	-4.591970e-003
1.250001818888269e+000	2.500000e+000	-4.591979e-003
1.250002366745130e+000	2.500000e+000	-4.592013e-003
1.250003163525052e+000	2.500000e+000	-4.592070e-003
1.250004156353861e+000	2.500000e+000	-4.592134e-003
1.250005522098965e+000	2.500000e+000	-4.592224e-003
1.250006033472641e+000	2.500000e+000	-4.592257e-003
1.250006283732263e+000	2.500000e+000	-4.592273e-003
1.250006381679112e+000	2.500000e+000	-4.592281e-003
1.250006488054273e+000	2.500000e+000	-4.592292e-003
1.250006558477357e+000	2.500000e+000	-4.592300e-003
1.250006624388425e+000	2.500000e+000	-4.592309e-003
1.250006705379562e+000	2.500000e+000	-4.592321e-003
1.250006799474688e+000	2.500000e+000	-4.592336e-003
1.250006900008349e+000	2.500000e+000	-4.592353e-003
1.250007019396587e+000	2.500000e+000	-4.592372e-003
1.250007176707410e+000	2.500000e+000	-4.592391e-003
