time	V(x_t)	V(y)
0.000000000000000e+000	-2.500000e+000	-1.310778e-002
9.999919999999900e-001	-2.500000e+000	-1.310778e-002
9.999999999999574e-001	-2.500000e+000	-1.310778e-002
1.000000000000000e+000	-2.500000e+000	-1.310778e-002
1.000000000000085e+000	-2.500000e+000	-1.310778e-002
1.000000000000256e+000	-2.499999e+000	-1.310778e-002
1.000000000001279e+000	-2.499994e+000	-1.310778e-002
1.000000000799361e+000	-2.496003e+000	-1.310778e-002
1.000000001597442e+000	-2.492013e+000	-1.310778e-002
1.000000002395524e+000	-2.488022e+000	-1.310778e-002
1.000000003193605e+000	-2.484032e+000	-1.310778e-002
1.000000003991687e+000	-2.480042e+000	-1.310778e-002
1.000000004789769e+000	-2.476051e+000	-1.310778e-002
1.000000005587850e+000	-2.472061e+000	-1.310778e-002
1.000000011175786e+000	-2.444121e+000	-1.310778e-002
1.000000017282215e+000	-2.413589e+000	-1.310778e-002
1.000000024334099e+000	-2.378330e+000	-1.310778e-002
1.000000032840065e+000	-2.335800e+000	-1.310778e-002
1.000000045024210e+000	-2.274879e+000	-1.310778e-002
1.000000061616996e+000	-2.191915e+000	-1.310778e-002
1.000000086537913e+000	-2.067310e+000	-1.310778e-002
1.000000117635436e+000	-1.911823e+000	-1.310778e-002
1.000000155971709e+000	-1.720141e+000	-1.310778e-002
1.000000204595091e+000	-1.477025e+000	-1.310778e-002
1.000000270150261e+000	-1.149249e+000	-1.310778e-002
1.000000337166391e+000	-8.141680e-001	-1.310777e-002
1.000000414347221e+000	-4.282639e-001	-1.310775e-002
1.000000512989422e+000	6.494711e-002	-1.310772e-002
1.000000624649599e+000	6.232480e-001	-1.310769e-002
1.000000799345688e+000	1.496728e+000	-1.310767e-002
1.000001000000000e+000	2.500000e+000	-1.310770e-002
1.000001020065431e+000	2.500000e+000	-1.310770e-002
1.000001060196294e+000	2.500000e+000	-1.310772e-002
1.000001140458019e+000	2.500000e+000	-1.310774e-002
1.000001227175615e+000	2.500000e+000	-1.310776e-002
1.000001341368062e+000	2.500000e+000	-1.310778e-002
1.000001483866653e+000	2.500000e+000	-1.310778e-002
1.000001758956313e+000	2.500000e+000	-1.310777e-002
1.000002217161045e+000	2.500000e+000	-1.310777e-002
1.000003028103520e+000	2.500000e+000	-1.310778e-002
1.000003920511480e+000	2.500000e+000	-1.310778e-002
1.000005277412915e+000	2.500000e+000	-1.310779e-002
1.000005487733854e+000	2.500000e+000	-1.310779e-002
1.000005908375733e+000	2.500000e+000	-1.310779e-002
1.000006096007230e+000	2.500000e+000	-1.310778e-002
1.000006208302167e+000	2.500000e+000	-1.310779e-002
1.000006295095478e+000	2.500000e+000	-1.310779e-002
1.000006388940157e+000	2.500000e+000	-1.310779e-002
1.000006453513422e+000	2.500000e+000	-1.310779e-002
1.000006520034163e+000	2.500000e+000	-1.310780e-002
1.000006606982524e+000	2.500000e+000	-1.310780e-002
1.000006685457398e+000	2.500000e+000	-1.310781e-002
1.000006783344257e+000	2.500000e+000	-1.310782e-002
1.000006883168493e+000	2.500000e+000	-1.310783e-002
1.000007012425062e+000	2.500000e+000	-1.310784e-002
1.000007180675847e+000	2.500000e+000	-1.310785e-002
1.000007350426857e+000	2.500000e+000	-1.310785e-002
1.000007511692313e+000	2.500000e+000	-1.310784e-002
1.000007709739996e+000	2.500000e+000	-1.310783e-002
1.000007980118935e+000	2.500000e+000	-1.310782e-002
1.000008325520945e+000	2.500000e+000	-1.310781e-002
1.000008644223803e+000	2.500000e+000	-1.310780e-002
1.000008969308051e+000	2.500000e+000	-1.310779e-002
1.000009312748829e+000	2.500000e+000	-1.310779e-002
1.000009766985221e+000	2.500000e+000	-1.310779e-002
1.000010351675279e+000	2.500000e+000	-1.310779e-002
1.000011089630767e+000	2.500000e+000	-1.310779e-002
1.000012057144973e+000	2.500000e+000	-1.310779e-002
1.000013633402260e+000	2.500000e+000	-1.310779e-002
1.000016394915696e+000	2.500000e+000	-1.310779e-002
1.000021917942567e+000	2.500000e+000	-1.310779e-002
1.003252099658271e+000	2.500000e+000	-1.309684e-002
1.006482281373976e+000	2.500000e+000	-1.306972e-002
1.009712463089681e+000	2.500000e+000	-1.302641e-002
1.012942644805385e+000	2.500000e+000	-1.296692e-002
1.016172826521090e+000	2.500000e+000	-1.289125e-002
1.019403008236795e+000	2.500000e+000	-1.279940e-002
1.022633189952499e+000	2.500000e+000	-1.269136e-002
1.045255508016174e+000	2.500000e+000	-1.169093e-002
1.074552383016174e+000	2.500000e+000	-9.861053e-003
1.103849258016174e+000	2.500000e+000	-7.577857e-003
1.133146133016174e+000	2.500000e+000	-5.013529e-003
1.162443008016174e+000	2.500000e+000	-2.345830e-003
1.191739883016174e+000	2.500000e+000	2.882117e-004
1.221036758016174e+000	2.500000e+000	2.787677e-003
1.250333633016174e+000	2.500000e+000	5.082802e-003
1.279630508016174e+000	2.500000e+000	7.129986e-003
1.308927383016174e+000	2.500000e+000	8.906974e-003
1.338224258016174e+000	2.500000e+000	1.040838e-002
1.367521133016174e+000	2.500000e+000	1.164162e-002
1.396818008016174e+000	2.500000e+000	1.262338e-002
1.426114883016174e+000	2.500000e+000	1.337659e-002
1.455411758016174e+000	2.500000e+000	1.392783e-002
1.484708633016174e+000	2.500000e+000	1.430536e-002
1.514005508016174e+000	2.500000e+000	1.453750e-002
1.543302383016174e+000	2.500000e+000	1.465143e-002
1.572599258016174e+000	2.500000e+000	1.467236e-002
1.601896133016174e+000	2.500000e+000	1.462298e-002
1.631193008016174e+000	2.500000e+000	1.452315e-002
1.660489883016174e+000	2.500000e+000	1.438981e-002
1.689786758016174e+000	2.500000e+000	1.423697e-002
1.719083633016174e+000	2.500000e+000	1.407593e-002
1.748380508016174e+000	2.500000e+000	1.391545e-002
1.777677383016174e+000	2.500000e+000	1.376207e-002
1.806974258016174e+000	2.500000e+000	1.362036e-002
1.836271133016174e+000	2.500000e+000	1.349324e-002
1.865568008016174e+000	2.500000e+000	1.338231e-002
1.894864883016174e+000	2.500000e+000	1.328807e-002
1.924161758016174e+000	2.500000e+000	1.321022e-002
1.953458633016174e+000	2.500000e+000	1.314641e-002
1.960107542585292e+000	2.500000e+000	1.313361e-002
1.966756452154410e+000	2.500000e+000	1.312164e-002
1.973405361723528e+000	2.500000e+000	1.311052e-002
1.980054271292646e+000	2.500000e+000	1.310024e-002
1.986703180861764e+000	2.500000e+000	1.309080e-002
1.993352090430882e+000	2.500000e+000	1.308221e-002
2.000001000000000e+000	2.500000e+000	1.307446e-002
2.000001002201720e+000	2.488991e+000	1.307446e-002
2.000001006605161e+000	2.466974e+000	1.307446e-002
2.000001015412042e+000	2.422940e+000	1.307446e-002
2.000001023569417e+000	2.382153e+000	1.307446e-002
2.000001031176545e+000	2.344117e+000	1.307446e-002
2.000001042268012e+000	2.288660e+000	1.307446e-002
2.000001057522228e+000	2.212389e+000	1.307446e-002
2.000001080940837e+000	2.095296e+000	1.307446e-002
2.000001111354270e+000	1.943229e+000	1.307446e-002
2.000001147738377e+000	1.761308e+000	1.307446e-002
2.000001194337652e+000	1.528312e+000	1.307445e-002
2.000001255478490e+000	1.222607e+000	1.307445e-002
2.000001325726497e+000	8.713675e-001	1.307444e-002
2.000001396796674e+000	5.160166e-001	1.307443e-002
2.000001500913939e+000	-4.569697e-003	1.307439e-002
2.000001601231630e+000	-5.061582e-001	1.307436e-002
2.000001772395190e+000	-1.361976e+000	1.307435e-002
2.000002000000000e+000	-2.500000e+000	1.307436e-002
2.000002022760481e+000	-2.500000e+000	1.307437e-002
2.000002068281443e+000	-2.500000e+000	1.307439e-002
2.000002159323367e+000	-2.500000e+000	1.307442e-002
2.000002249734274e+000	-2.500000e+000	1.307444e-002
2.000002378882358e+000	-2.500000e+000	1.307445e-002
2.000002525516079e+000	-2.500000e+000	1.307445e-002
2.000002818783523e+000	-2.500000e+000	1.307444e-002
2.000003366433631e+000	-2.500000e+000	1.307444e-002
2.000004163247227e+000	-2.500000e+000	1.307445e-002
2.000005155837031e+000	-2.500000e+000	1.307445e-002
2.000006521567536e+000	-2.500000e+000	1.307445e-002
2.000007032907264e+000	-2.500000e+000	1.307445e-002
2.000007283368818e+000	-2.500000e+000	1.307445e-002
2.000007381376057e+000	-2.500000e+000	1.307445e-002
2.000007487710260e+000	-2.500000e+000	1.307446e-002
2.000007558185203e+000	-2.500000e+000	1.307446e-002
2.000007624107445e+000	-2.500000e+000	1.307447e-002
2.000007705095391e+000	-2.500000e+000	1.307447e-002
2.000007799139246e+000	-2.500000e+000	1.307448e-002
2.000007899639638e+000	-2.500000e+000	1.307449e-002
2.000008018964648e+000	-2.500000e+000	1.307450e-002
2.000008176130447e+000	-2.500000e+000	1.307451e-002
2.000008325698327e+000	-2.500000e+000	1.307452e-002
2.000008493018343e+000	-2.500000e+000	1.307451e-002
2.000008667122885e+000	-2.500000e+000	1.307450e-002
2.000008914399861e+000	-2.500000e+000	1.307449e-002
2.000009204008142e+000	-2.500000e+000	1.307447e-002
2.000009530736213e+000	-2.500000e+000	1.307446e-002
2.000009848158526e+000	-2.500000e+000	1.307445e-002
2.000010186511133e+000	-2.500000e+000	1.307445e-002
2.000010585187503e+000	-2.500000e+000	1.307445e-002
2.000011124385425e+000	-2.500000e+000	1.307445e-002
2.000011797719579e+000	-2.500000e+000	1.307445e-002
2.000012663672903e+000	-2.500000e+000	1.307444e-002
2.000016199343630e+000	-2.500000e+000	1.307444e-002
2.000093503180828e+000	-2.500000e+000	1.307434e-002
2.000170807018026e+000	-2.500000e+000	1.307424e-002
2.000248110855225e+000	-2.500000e+000	1.307412e-002
2.000325414692422e+000	-2.500000e+000	1.307399e-002
2.000402718529621e+000	-2.500000e+000	1.307385e-002
2.000480022366819e+000	-2.500000e+000	1.307370e-002
2.000557326204017e+000	-2.500000e+000	1.307354e-002
2.002193489309438e+000	-2.500000e+000	1.306761e-002
2.004375040116666e+000	-2.500000e+000	1.305241e-002
2.008738141731121e+000	-2.500000e+000	1.299809e-002
2.017464344960033e+000	-2.500000e+000	1.280171e-002
2.034916751417855e+000	-2.500000e+000	1.213403e-002
2.064213626417855e+000	-2.500000e+000	1.047967e-002
2.093510501417855e+000	-2.500000e+000	8.336401e-003
2.122807376417855e+000	-2.500000e+000	5.845035e-003
2.152104251417855e+000	-2.500000e+000	3.197269e-003
2.181401126417855e+000	-2.500000e+000	5.427325e-004
2.210698001417855e+000	-2.500000e+000	-2.006561e-003
2.239994876417855e+000	-2.500000e+000	-4.371348e-003
2.269291751417855e+000	-2.500000e+000	-6.500109e-003
2.298588626417855e+000	-2.500000e+000	-8.364182e-003
2.327885501417855e+000	-2.500000e+000	-9.953162e-003
2.357182376417855e+000	-2.500000e+000	-1.127071e-002
2.386479251417855e+000	-2.500000e+000	-1.233084e-002
2.415776126417855e+000	-2.500000e+000	-1.315471e-002
2.445073001417855e+000	-2.500000e+000	-1.376794e-002
2.474369876417855e+000	-2.500000e+000	-1.419839e-002
2.503666751417855e+000	-2.500000e+000	-1.447450e-002
2.532963626417855e+000	-2.500000e+000	-1.462387e-002
2.562260501417855e+000	-2.500000e+000	-1.467242e-002
2.591557376417855e+000	-2.500000e+000	-1.464366e-002
2.620854251417855e+000	-2.500000e+000	-1.455836e-002
2.650151126417855e+000	-2.500000e+000	-1.443440e-002
2.679448001417855e+000	-2.500000e+000	-1.428672e-002
2.708744876417855e+000	-2.500000e+000	-1.412747e-002
2.738041751417855e+000	-2.500000e+000	-1.396619e-002
2.767338626417855e+000	-2.500000e+000	-1.381009e-002
2.796635501417855e+000	-2.500000e+000	-1.366435e-002
2.825932376417855e+000	-2.500000e+000	-1.353241e-002
2.855229251417855e+000	-2.500000e+000	-1.341625e-002
2.884526126417855e+000	-2.500000e+000	-1.331669e-002
2.913823001417855e+000	-2.500000e+000	-1.323367e-002
2.943119876417855e+000	-2.500000e+000	-1.316645e-002
2.951245608358162e+000	-2.500000e+000	-1.314939e-002
2.959371340298468e+000	-2.500000e+000	-1.313358e-002
2.967497072238774e+000	-2.500000e+000	-1.311904e-002
2.975622804179081e+000	-2.500000e+000	-1.310576e-002
2.983748536119387e+000	-2.500000e+000	-1.309375e-002
2.991874268059694e+000	-2.500000e+000	-1.308300e-002
3.000000000000000e+000	-2.500000e+000	-1.307351e-002
3.000000002202419e+000	-2.488988e+000	-1.307351e-002
3.000000006607256e+000	-2.466964e+000	-1.307351e-002
3.000000015416930e+000	-2.422915e+000	-1.307351e-002
3.000000023576623e+000	-2.382117e+000	-1.307351e-002
3.000000031185360e+000	-2.344073e+000	-1.307351e-002
3.000000042279741e+000	-2.288601e+000	-1.307351e-002
3.000000057538584e+000	-2.212307e+000	-1.307351e-002
3.000000080965915e+000	-2.095170e+000	-1.307351e-002
3.000000111379912e+000	-1.943100e+000	-1.307351e-002
3.000000147774165e+000	-1.761129e+000	-1.307351e-002
3.000000194379605e+000	-1.528102e+000	-1.307351e-002
3.000000255540833e+000	-1.222296e+000	-1.307351e-002
3.000000325770279e+000	-8.711486e-001	-1.307350e-002
3.000000396864188e+000	-5.156791e-001	-1.307348e-002
3.000000500954351e+000	4.771755e-003	-1.307345e-002
3.000000601315123e+000	5.065756e-001	-1.307342e-002
3.000000772484265e+000	1.362421e+000	-1.307340e-002
3.000001000000000e+000	2.500000e+000	-1.307342e-002
3.000001022751574e+000	2.500000e+000	-1.307343e-002
3.000001068254721e+000	2.500000e+000	-1.307344e-002
3.000001159261015e+000	2.500000e+000	-1.307347e-002
3.000001249659183e+000	2.500000e+000	-1.307349e-002
3.000001378757214e+000	2.500000e+000	-1.307351e-002
3.000001525374743e+000	2.500000e+000	-1.307351e-002
3.000001818609801e+000	2.500000e+000	-1.307350e-002
3.000002365917109e+000	2.500000e+000	-1.307350e-002
3.000003162805611e+000	2.500000e+000	-1.307350e-002
3.000004155014631e+000	2.500000e+000	-1.307350e-002
3.000005520761215e+000	2.500000e+000	-1.307351e-002
3.000006032053272e+000	2.500000e+000	-1.307351e-002
3.000006282822795e+000	2.500000e+000	-1.307351e-002
3.000006380922109e+000	2.500000e+000	-1.307351e-002
3.000006487195378e+000	2.500000e+000	-1.307351e-002
3.000006557747190e+000	2.500000e+000	-1.307352e-002
3.000006623686604e+000	2.500000e+000	-1.307352e-002
3.000006704669928e+000	2.500000e+000	-1.307353e-002
3.000006798636667e+000	2.500000e+000	-1.307354e-002
3.000006899087924e+000	2.500000e+000	-1.307355e-002
3.000007018318053e+000	2.500000e+000	-1.307356e-002
3.000007175268209e+000	2.500000e+000	-1.307357e-002
3.000007324596609e+000	2.500000e+000	-1.307357e-002
3.000007492006963e+000	2.500000e+000	-1.307357e-002
3.000007665815731e+000	2.500000e+000	-1.307356e-002
3.000007912799973e+000	2.500000e+000	-1.307354e-002
3.000008202061531e+000	2.500000e+000	-1.307353e-002
3.000008528674901e+000	2.500000e+000	-1.307352e-002
3.000008846158452e+000	2.500000e+000	-1.307351e-002
3.000009184222491e+000	2.500000e+000	-1.307351e-002
3.000009582363096e+000	2.500000e+000	-1.307350e-002
3.000010120503474e+000	2.500000e+000	-1.307350e-002
3.000010793081501e+000	2.500000e+000	-1.307350e-002
3.000011657230105e+000	2.500000e+000	-1.307350e-002
3.000015180305752e+000	2.500000e+000	-1.307350e-002
3.000092084572654e+000	2.500000e+000	-1.307340e-002
3.000168988839556e+000	2.500000e+000	-1.307329e-002
3.000245893106457e+000	2.500000e+000	-1.307318e-002
3.000322797373359e+000	2.500000e+000	-1.307305e-002
3.000399701640261e+000	2.500000e+000	-1.307291e-002
3.000476605907163e+000	2.500000e+000	-1.307276e-002
3.000553510174064e+000	2.500000e+000	-1.307260e-002
3.002181216232584e+000	2.500000e+000	-1.306675e-002
3.004351490977277e+000	2.500000e+000	-1.305172e-002
3.008692040466663e+000	2.500000e+000	-1.299797e-002
3.017373139445436e+000	2.500000e+000	-1.280355e-002
3.034735337402981e+000	2.500000e+000	-1.214162e-002
3.064032212402981e+000	2.500000e+000	-1.049105e-002
3.093329087402981e+000	2.500000e+000	-8.350810e-003
3.122625962402981e+000	2.500000e+000	-5.861107e-003
3.151922837402981e+000	2.500000e+000	-3.213913e-003
3.181219712402981e+000	2.500000e+000	-5.591135e-004
3.210516587402981e+000	2.500000e+000	1.991058e-003
3.239813462402981e+000	2.500000e+000	4.357145e-003
3.269110337402981e+000	2.500000e+000	6.487466e-003
3.298407212402981e+000	2.500000e+000	8.353229e-003
3.327704087402981e+000	2.500000e+000	9.943926e-003
3.357000962402981e+000	2.500000e+000	1.126314e-002
3.386297837402981e+000	2.500000e+000	1.232483e-002
3.415594712402981e+000	2.500000e+000	1.315011e-002
3.444891587402981e+000	2.500000e+000	1.376458e-002
3.474188462402981e+000	2.500000e+000	1.419611e-002
3.503485337402981e+000	2.500000e+000	1.447311e-002
3.532782212402981e+000	2.500000e+000	1.462321e-002
3.562079087402981e+000	2.500000e+000	1.467233e-002
3.591375962402981e+000	2.500000e+000	1.464399e-002
3.620672837402981e+000	2.500000e+000	1.455900e-002
3.649969712402981e+000	2.500000e+000	1.443525e-002
3.679266587402981e+000	2.500000e+000	1.428768e-002
3.708563462402981e+000	2.500000e+000	1.412847e-002
3.737860337402981e+000	2.500000e+000	1.396718e-002
3.767157212402981e+000	2.500000e+000	1.381104e-002
3.796454087402981e+000	2.500000e+000	1.366523e-002
3.825750962402981e+000	2.500000e+000	1.353320e-002
3.855047837402981e+000	2.500000e+000	1.341693e-002
3.884344712402981e+000	2.500000e+000	1.331727e-002
3.913641587402981e+000	2.500000e+000	1.323415e-002
3.942938462402981e+000	2.500000e+000	1.316684e-002
3.951090253488269e+000	2.500000e+000	1.314969e-002
3.959242044573557e+000	2.500000e+000	1.313382e-002
3.967393835658846e+000	2.500000e+000	1.311922e-002
3.975545626744135e+000	2.500000e+000	1.310589e-002
3.983697417829423e+000	2.500000e+000	1.309383e-002
3.991849208914712e+000	2.500000e+000	1.308304e-002
4.000001000000000e+000	2.500000e+000	1.307352e-002
4.000001002202419e+000	2.488988e+000	1.307352e-002
4.000001006607256e+000	2.466964e+000	1.307352e-002
4.000001015416931e+000	2.422915e+000	1.307352e-002
4.000001023576624e+000	2.382117e+000	1.307352e-002
4.000001031185361e+000	2.344073e+000	1.307352e-002
4.000001042279741e+000	2.288601e+000	1.307352e-002
4.000001057538586e+000	2.212307e+000	1.307352e-002
4.000001080965922e+000	2.095170e+000	1.307352e-002
4.000001111379913e+000	1.943100e+000	1.307352e-002
4.000001147774170e+000	1.761129e+000	1.307352e-002
4.000001194379608e+000	1.528102e+000	1.307352e-002
4.000001255540843e+000	1.222296e+000	1.307351e-002
4.000001325770282e+000	8.711486e-001	1.307350e-002
4.000001396864197e+000	5.156790e-001	1.307349e-002
4.000001500954353e+000	-4.771764e-003	1.307346e-002
4.000001601315132e+000	-5.065756e-001	1.307343e-002
4.000001772484269e+000	-1.362421e+000	1.307341e-002
4.000002000000000e+000	-2.500000e+000	1.307343e-002
4.000002022751573e+000	-2.500000e+000	1.307344e-002
4.000002068254720e+000	-2.500000e+000	1.307345e-002
4.000002159261012e+000	-2.500000e+000	1.307348e-002
4.000002249659179e+000	-2.500000e+000	1.307350e-002
4.000002378757207e+000	-2.500000e+000	1.307352e-002
4.000002525374736e+000	-2.500000e+000	1.307352e-002
4.000002818609793e+000	-2.500000e+000	1.307351e-002
4.000003365917086e+000	-2.500000e+000	1.307351e-002
4.000004162805594e+000	-2.500000e+000	1.307351e-002
4.000005155014597e+000	-2.500000e+000	1.307351e-002
4.000006520761187e+000	-2.500000e+000	1.307352e-002
4.000007032053242e+000	-2.500000e+000	1.307352e-002
4.000007282822774e+000	-2.500000e+000	1.307352e-002
4.000007380922091e+000	-2.500000e+000	1.307352e-002
4.000007487195358e+000	-2.500000e+000	1.307352e-002
4.000007557747172e+000	-2.500000e+000	1.307353e-002
4.000007623686586e+000	-2.500000e+000	1.307353e-002
4.000007704669910e+000	-2.500000e+000	1.307354e-002
4.000007798636647e+000	-2.500000e+000	1.307355e-002
4.000007899087902e+000	-2.500000e+000	1.307356e-002
4.000008018318028e+000	-2.500000e+000	1.307357e-002
4.000008175268179e+000	-2.500000e+000	1.307358e-002
4.000008324596572e+000	-2.500000e+000	1.307358e-002
4.000008492006929e+000	-2.500000e+000	1.307357e-002
4.000008665815689e+000	-2.500000e+000	1.307356e-002
4.000008912799922e+000	-2.500000e+000	1.307355e-002
4.000009202061470e+000	-2.500000e+000	1.307354e-002
4.000009528674837e+000	-2.500000e+000	1.307353e-002
4.000009846158389e+000	-2.500000e+000	1.307352e-002
4.000010184222421e+000	-2.500000e+000	1.307351e-002
4.000010582363011e+000	-2.500000e+000	1.307351e-002
4.000011120503359e+000	-2.500000e+000	1.307351e-002
4.000011793081366e+000	-2.500000e+000	1.307351e-002
4.000012657229918e+000	-2.500000e+000	1.307351e-002
4.000016180305213e+000	-2.500000e+000	1.307350e-002
4.000093084560995e+000	-2.500000e+000	1.307341e-002
4.000169988816777e+000	-2.500000e+000	1.307330e-002
4.000246893072559e+000	-2.500000e+000	1.307319e-002
4.000323797328340e+000	-2.500000e+000	1.307306e-002
4.000400701584122e+000	-2.500000e+000	1.307292e-002
4.000477605839904e+000	-2.500000e+000	1.307277e-002
4.000554510095686e+000	-2.500000e+000	1.307261e-002
4.002182215918849e+000	-2.500000e+000	1.306676e-002
