time	V(x_t)	V(y)
0.000000000000000e+000	0.000000e+000	5.253836e-019
2.692532100501483e-007	8.458839e-006	9.642088e-012
5.385064201002967e-007	1.691768e-005	1.893858e-011
8.077596301504449e-007	2.537652e-005	2.788948e-011
1.077012840200593e-006	3.383536e-005	3.649479e-011
1.346266050250742e-006	4.229420e-005	4.475451e-011
1.615519260300890e-006	5.075303e-005	5.266863e-011
1.884772470351038e-006	5.921187e-005	6.023716e-011
2.271265098104381e-006	7.135390e-005	6.154701e-011
2.629406122018973e-006	8.260523e-005	6.356903e-011
3.122537581679625e-006	9.809741e-005	6.413681e-011
3.675454572937571e-006	1.154678e-004	6.370730e-011
4.412507440523592e-006	1.386230e-004	6.355957e-011
5.274263411039545e-006	1.656959e-004	6.290986e-011
6.393290286662738e-006	2.008511e-004	6.171171e-011
7.737358374672713e-006	2.430763e-004	6.005737e-011
9.455668557385282e-006	2.970586e-004	5.729444e-011
1.155163013528827e-005	3.629051e-004	5.316531e-011
1.420469369246719e-005	4.462536e-004	4.663313e-011
1.746979890676642e-005	5.488299e-004	3.671778e-011
2.157775751331709e-005	6.778853e-004	2.142020e-011
2.666018110628373e-005	8.375543e-004	-1.481760e-012
3.303170343850608e-005	1.037722e-003	-3.552130e-011
4.094036194917682e-005	1.286179e-003	-8.387563e-011
5.083568305508391e-005	1.597050e-003	-1.490001e-010
6.122310215416155e-005	1.923380e-003	-2.157289e-010
7.182760105995126e-005	2.256530e-003	-2.726653e-010
8.174498996095671e-005	2.568094e-003	-3.037502e-010
9.220940404350132e-005	2.896843e-003	-2.981692e-010
1.032331023299292e-004	3.243163e-003	-2.311086e-010
1.153175876587438e-004	3.622808e-003	-5.704436e-011
1.291334843488433e-004	4.056846e-003	3.199359e-010
1.463413347978618e-004	4.597446e-003	1.135564e-009
1.665697070778541e-004	5.232938e-003	2.744272e-009
1.910260017891114e-004	6.001253e-003	5.938931e-009
2.195845859282610e-004	6.898445e-003	1.198927e-008
2.535840283692658e-004	7.966564e-003	2.355652e-008
2.932894652965877e-004	9.213939e-003	4.511350e-008
3.402757168376922e-004	1.069004e-002	8.560694e-008
3.953269228843415e-004	1.241951e-002	1.530089e-007
4.173070516505818e-004	1.311003e-002	1.872114e-007
4.288517744492988e-004	1.347271e-002	2.081055e-007
4.359139276440248e-004	1.369457e-002	2.234834e-007
4.430284121096831e-004	1.391808e-002	2.395316e-007
4.506476519020773e-004	1.415744e-002	2.577153e-007
4.542120493618306e-004	1.426942e-002	2.659267e-007
4.584753192639237e-004	1.440335e-002	2.761812e-007
4.644979182243180e-004	1.459255e-002	2.910097e-007
4.741647915312855e-004	1.489624e-002	3.167559e-007
6.518565617999743e-004	2.047849e-002	1.064619e-006
8.295483320686630e-004	2.606058e-002	2.357666e-006
1.007240102337352e-003	3.164251e-002	4.195897e-006
1.184931872606041e-003	3.722428e-002	6.579311e-006
1.362623642874730e-003	4.280588e-002	9.507909e-006
1.540315413143418e-003	4.838732e-002	1.298169e-005
1.718007183412107e-003	5.396859e-002	1.700066e-005
2.949574703219184e-003	9.264240e-002	5.955983e-005
5.412709742833340e-003	1.699142e-001	2.203529e-004
1.033897982206165e-002	3.238956e-001	8.075613e-004
1.860043904939232e-002	5.790436e-001	2.471871e-003
3.041490563541682e-002	9.324181e-001	6.176272e-003
4.679962630314297e-002	1.386956e+000	1.352123e-002
6.814437354605472e-002	1.888603e+000	2.614640e-002
9.563889453265358e-002	2.331755e+000	4.552246e-002
1.055436137843368e-001	2.425648e+000	5.325852e-002
1.131359695099091e-001	2.472267e+000	5.954689e-002
1.225598929659030e-001	2.498825e+000	6.754000e-002
1.315928171872498e-001	2.491425e+000	7.533135e-002
1.338147441621526e-001	2.484637e+000	7.725823e-002
1.360366711370554e-001	2.475940e+000	7.918949e-002
1.382585981119582e-001	2.465333e+000	8.112513e-002
1.404805250868610e-001	2.452817e+000	8.306515e-002
1.427024520617638e-001	2.438391e+000	8.500955e-002
1.449243790366666e-001	2.422055e+000	8.695833e-002
1.471463060115694e-001	2.403811e+000	8.891148e-002
1.510621777979649e-001	2.367118e+000	9.235303e-002
1.510636117455217e-001	2.367104e+000	9.235425e-002
1.513430266694492e-001	2.364265e+000	9.259988e-002
1.516224415933766e-001	2.361397e+000	9.284551e-002
1.519018565173041e-001	2.358501e+000	9.309112e-002
1.521812714412316e-001	2.355575e+000	9.333672e-002
1.524606863651590e-001	2.352620e+000	9.358232e-002
1.527401012890865e-001	2.349636e+000	9.382791e-002
1.530195162130140e-001	2.346623e+000	9.407349e-002
1.536166633745952e-001	2.340086e+000	9.459837e-002
1.542138105361764e-001	2.333419e+000	9.512317e-002
1.548109576977576e-001	2.326620e+000	9.564790e-002
1.554081048593389e-001	2.319691e+000	9.617254e-002
1.560052520209201e-001	2.312631e+000	9.669711e-002
1.566023991825013e-001	2.305440e+000	9.722159e-002
1.571995463440825e-001	2.298119e+000	9.774600e-002
1.574981988828218e-001	2.294409e+000	9.800822e-002
1.575314981205906e-001	2.293993e+000	9.803745e-002
1.575980965961283e-001	2.293161e+000	9.809592e-002
1.576367773107937e-001	2.292677e+000	9.812988e-002
1.576632754235200e-001	2.292345e+000	9.815314e-002
1.576825591045844e-001	2.292103e+000	9.817007e-002
1.576954041093645e-001	2.291942e+000	9.818135e-002
1.577048347942660e-001	2.291823e+000	9.818963e-002
1.577119311557403e-001	2.291734e+000	9.819586e-002
1.577177805118893e-001	2.291661e+000	9.820099e-002
1.577237160749296e-001	2.291586e+000	9.820621e-002
1.577296285566342e-001	2.291512e+000	9.821139e-002
1.577374561838584e-001	2.291414e+000	9.821827e-002
1.577526241572878e-001	2.291223e+000	9.823158e-002
1.577691089908598e-001	2.291016e+000	9.824605e-002
1.577950372183580e-001	2.290690e+000	9.826881e-002
1.578360944348175e-001	2.290173e+000	9.830483e-002
1.579036125899604e-001	2.289321e+000	9.836407e-002
1.579404820244408e-001	2.288856e+000	9.839640e-002
1.580142208934016e-001	2.287923e+000	9.846102e-002
1.580144256629271e-001	2.287920e+000	9.846120e-002
1.580148352019783e-001	2.287915e+000	9.846156e-002
1.580158998539021e-001	2.287902e+000	9.846249e-002
1.580165333059135e-001	2.287894e+000	9.846304e-002
1.580177331147407e-001	2.287879e+000	9.846409e-002
1.580197376253546e-001	2.287853e+000	9.846585e-002
1.580219154733549e-001	2.287825e+000	9.846776e-002
1.580242806288743e-001	2.287796e+000	9.846984e-002
1.580269317487879e-001	2.287762e+000	9.847216e-002
1.580294706900650e-001	2.287730e+000	9.847438e-002
1.580352738178460e-001	2.287656e+000	9.847945e-002
1.580415374649111e-001	2.287577e+000	9.848494e-002
1.580519701725915e-001	2.287445e+000	9.849407e-002
1.580726485446908e-001	2.287182e+000	9.851217e-002
1.581043391784371e-001	2.286780e+000	9.853989e-002
1.581304419992504e-001	2.286449e+000	9.856271e-002
1.581577284048450e-001	2.286102e+000	9.858656e-002
1.581966400062014e-001	2.285607e+000	9.862055e-002
1.582483462379552e-001	2.284948e+000	9.866568e-002
1.582670009843097e-001	2.284710e+000	9.868196e-002
1.582763021063464e-001	2.284592e+000	9.869007e-002
1.590967081102418e-001	2.274002e+000	9.939972e-002
1.599171141141372e-001	2.263174e+000	1.000976e-001
1.607375201180326e-001	2.252106e+000	1.007837e-001
1.615579261219279e-001	2.240800e+000	1.014581e-001
1.623783321258233e-001	2.229254e+000	1.021207e-001
1.631987381297186e-001	2.217469e+000	1.027715e-001
1.640191441336140e-001	2.205445e+000	1.034106e-001
1.697584808571107e-001	2.114876e+000	1.075525e-001
1.812371543041042e-001	1.901277e+000	1.141100e-001
2.041945011980910e-001	1.360864e+000	1.216542e-001
2.334913761980910e-001	5.149217e-001	1.217647e-001
2.627882511980910e-001	-4.000278e-001	1.135339e-001
2.627945096857924e-001	-4.002219e-001	1.135303e-001
2.636782269030749e-001	-4.276013e-001	1.130040e-001
2.645689025236430e-001	-4.551430e-001	1.124598e-001
2.663502537647792e-001	-5.100520e-001	1.113521e-001
2.663521564673858e-001	-5.101105e-001	1.113509e-001
2.669181572612802e-001	-5.275061e-001	1.109873e-001
2.674841580551746e-001	-5.448732e-001	1.106184e-001
2.680501588490691e-001	-5.622116e-001	1.102441e-001
2.686161596429635e-001	-5.795215e-001	1.098645e-001
2.691821604368579e-001	-5.968027e-001	1.094796e-001
2.697481612307524e-001	-6.140554e-001	1.090893e-001
2.703141620246468e-001	-6.312795e-001	1.086937e-001
2.742719187871701e-001	-7.507566e-001	1.057897e-001
2.821874323122166e-001	-9.838501e-001	9.931295e-002
2.980184593623095e-001	-1.418650e+000	8.424805e-002
3.273153343623095e-001	-2.064435e+000	5.232423e-002
3.462661876868828e-001	-2.338790e+000	2.960845e-002
3.560082719655553e-001	-2.429141e+000	1.724309e-002
3.637144677827358e-001	-2.474902e+000	7.245444e-003
3.722977340373150e-001	-2.498559e+000	-3.989032e-003
3.814952915237320e-001	-2.491677e+000	-1.606815e-002
3.930718735357048e-001	-2.435810e+000	-3.121480e-002
4.118303101944500e-001	-2.236989e+000	-5.559365e-002
4.128763717102581e-001	-2.222119e+000	-5.693428e-002
4.139224332260662e-001	-2.206872e+000	-5.827182e-002
4.149684947418743e-001	-2.191246e+000	-5.960625e-002
4.160145562576824e-001	-2.175242e+000	-6.093759e-002
4.170606177734905e-001	-2.158860e+000	-6.226583e-002
4.181066792892986e-001	-2.142100e+000	-6.359097e-002
4.191527408051067e-001	-2.124962e+000	-6.491300e-002
4.204932066913590e-001	-2.102446e+000	-6.661384e-002
4.218336725776113e-001	-2.079354e+000	-6.830920e-002
4.231741384638635e-001	-2.055688e+000	-6.999909e-002
4.245146043501158e-001	-2.031446e+000	-7.168351e-002
4.258550702363680e-001	-2.006630e+000	-7.336246e-002
4.271955361226204e-001	-1.981239e+000	-7.503593e-002
4.285360020088726e-001	-1.955272e+000	-7.670394e-002
4.292226475166851e-001	-1.941758e+000	-7.755652e-002
4.292240479684160e-001	-1.941730e+000	-7.755826e-002
4.292259152373906e-001	-1.941693e+000	-7.756057e-002
4.292283149296128e-001	-1.941646e+000	-7.756355e-002
4.292463331289154e-001	-1.941289e+000	-7.758590e-002
4.292643513282179e-001	-1.940932e+000	-7.760826e-002
4.292823695275205e-001	-1.940575e+000	-7.763061e-002
4.293003877268230e-001	-1.940218e+000	-7.765296e-002
4.293184059261255e-001	-1.939861e+000	-7.767531e-002
4.293364241254281e-001	-1.939504e+000	-7.769766e-002
4.293544423247306e-001	-1.939147e+000	-7.772001e-002
4.294017155944218e-001	-1.938209e+000	-7.777864e-002
4.294408123318073e-001	-1.937433e+000	-7.782712e-002
4.294664708500562e-001	-1.936924e+000	-7.785894e-002
4.294874521688077e-001	-1.936507e+000	-7.788496e-002
4.295074766320525e-001	-1.936109e+000	-7.790978e-002
4.295191981129797e-001	-1.935876e+000	-7.792432e-002
4.295290776199872e-001	-1.935680e+000	-7.793656e-002
4.295386104656170e-001	-1.935490e+000	-7.794838e-002
4.295476116117361e-001	-1.935311e+000	-7.795954e-002
4.295572903961508e-001	-1.935119e+000	-7.797154e-002
4.295687128151713e-001	-1.934891e+000	-7.798570e-002
4.295842501983085e-001	-1.934582e+000	-7.800496e-002
4.296098127585827e-001	-1.934074e+000	-7.803664e-002
4.296609378791310e-001	-1.933055e+000	-7.809999e-002
4.297631881202275e-001	-1.931017e+000	-7.822665e-002
4.297635620746064e-001	-1.931009e+000	-7.822711e-002
4.297643099833643e-001	-1.930994e+000	-7.822803e-002
4.297658023623476e-001	-1.930965e+000	-7.822987e-002
4.297669079671641e-001	-1.930943e+000	-7.823124e-002
4.297679840267091e-001	-1.930921e+000	-7.823257e-002
4.297700791842593e-001	-1.930879e+000	-7.823516e-002
4.297745450526953e-001	-1.930790e+000	-7.824069e-002
4.297793459190734e-001	-1.930694e+000	-7.824663e-002
4.297889476518295e-001	-1.930503e+000	-7.825851e-002
4.298070314475158e-001	-1.930142e+000	-7.828089e-002
4.298385682141766e-001	-1.929512e+000	-7.831990e-002
4.298619520243999e-001	-1.929045e+000	-7.834882e-002
4.298867404321499e-001	-1.928549e+000	-7.837947e-002
4.299243820907315e-001	-1.927796e+000	-7.842598e-002
4.299693882468715e-001	-1.926896e+000	-7.848158e-002
4.299969015100739e-001	-1.926345e+000	-7.851555e-002
4.300044588578685e-001	-1.926194e+000	-7.852488e-002
4.300100916582118e-001	-1.926081e+000	-7.853183e-002
4.300217380139351e-001	-1.925848e+000	-7.854621e-002
4.315021887399426e-001	-1.895843e+000	-8.035483e-002
4.329826394659501e-001	-1.865206e+000	-8.212515e-002
4.344630901919576e-001	-1.833937e+000	-8.385715e-002
4.359435409179651e-001	-1.802035e+000	-8.555085e-002
4.374239916439726e-001	-1.769500e+000	-8.720623e-002
4.389044423699801e-001	-1.736333e+000	-8.882331e-002
4.403848930959876e-001	-1.702533e+000	-9.040208e-002
4.506307742103157e-001	-1.453385e+000	-1.002785e-001
4.711225364389720e-001	-8.874319e-001	-1.153652e-001
5.004194114389720e-001	1.317614e-002	-1.277916e-001
5.297162864389720e-001	9.120184e-001	-1.291292e-001
5.590131614389720e-001	1.688637e+000	-1.214768e-001
5.595361921968760e-001	1.700718e+000	-1.211774e-001
5.600592229547801e-001	1.712724e+000	-1.208732e-001
5.605822537126841e-001	1.724656e+000	-1.205643e-001
5.611052844705882e-001	1.736513e+000	-1.202505e-001
5.616283152284922e-001	1.748295e+000	-1.199320e-001
5.621513459863963e-001	1.760003e+000	-1.196087e-001
5.626743767443003e-001	1.771636e+000	-1.192806e-001
5.663364861193003e-001	1.850905e+000	-1.169436e-001
5.663381026252202e-001	1.850939e+000	-1.169426e-001
5.668105842126793e-001	1.860885e+000	-1.166241e-001
5.672830658001382e-001	1.870764e+000	-1.163018e-001
5.677555473875973e-001	1.880577e+000	-1.159758e-001
5.682280289750562e-001	1.890323e+000	-1.156461e-001
5.687005105625153e-001	1.900003e+000	-1.153126e-001
5.691729921499742e-001	1.909617e+000	-1.149754e-001
5.696454737374332e-001	1.919165e+000	-1.146344e-001
5.729560778614861e-001	1.984137e+000	-1.121475e-001
5.795772861095918e-001	2.103674e+000	-1.066913e-001
5.928197026058032e-001	2.298357e+000	-9.456015e-002
6.038952140401396e-001	2.412593e+000	-8.338207e-002
6.117088448731670e-001	2.465211e+000	-7.482595e-002
6.206764530835504e-001	2.496311e+000	-6.441991e-002
6.308916814271042e-001	2.493151e+000	-5.202773e-002
6.420901530299484e-001	2.442568e+000	-3.788533e-002
6.602467417199396e-001	2.258756e+000	-1.435762e-002
6.623773305868591e-001	2.229221e+000	-1.152703e-002
6.645079194537786e-001	2.198141e+000	-8.693048e-003
6.666385083206982e-001	2.165516e+000	-5.855660e-003
6.687690971876177e-001	2.131346e+000	-3.014870e-003
6.708996860545372e-001	2.095631e+000	-1.706766e-004
6.730302749214567e-001	2.058372e+000	2.676919e-003
6.751608637883763e-001	2.019568e+000	5.527916e-003
6.765168937109570e-001	1.994166e+000	7.343057e-003
6.767845138111416e-001	1.989084e+000	7.701304e-003
6.770521339113260e-001	1.983980e+000	8.059557e-003
6.773197540115106e-001	1.978853e+000	8.417817e-003
6.775873741116951e-001	1.973704e+000	8.776083e-003
6.778549942118797e-001	1.968532e+000	9.134356e-003
6.781226143120641e-001	1.963339e+000	9.492635e-003
6.783902344122487e-001	1.958123e+000	9.850921e-003
6.784565717374727e-001	1.956826e+000	9.939734e-003
6.784778204119585e-001	1.956411e+000	9.968181e-003
6.784990690864442e-001	1.955995e+000	9.996628e-003
6.785203177609300e-001	1.955579e+000	1.002508e-002
6.785415664354159e-001	1.955163e+000	1.005352e-002
6.785628151099017e-001	1.954747e+000	1.008197e-002
6.785840637843874e-001	1.954331e+000	1.011042e-002
6.786053124588732e-001	1.953915e+000	1.013887e-002
6.786218967901793e-001	1.953590e+000	1.016107e-002
6.786550654527912e-001	1.952939e+000	1.020548e-002
6.786969799401312e-001	1.952117e+000	1.026159e-002
6.787240621871375e-001	1.951585e+000	1.029785e-002
6.787419849341448e-001	1.951233e+000	1.032185e-002
6.787562452422982e-001	1.950953e+000	1.034094e-002
6.787642099734885e-001	1.950797e+000	1.035160e-002
6.787732832986344e-001	1.950619e+000	1.036375e-002
6.787813379546359e-001	1.950460e+000	1.037453e-002
6.787939561975837e-001	1.950212e+000	1.039142e-002
6.788010344055800e-001	1.950073e+000	1.040090e-002
6.788088165278384e-001	1.949920e+000	1.041132e-002
6.788170645126461e-001	1.949758e+000	1.042236e-002
6.788265447444998e-001	1.949572e+000	1.043505e-002
6.788375958893612e-001	1.949354e+000	1.044985e-002
6.788508601101319e-001	1.949093e+000	1.046760e-002
6.788680016202577e-001	1.948756e+000	1.049055e-002
6.788910871099914e-001	1.948302e+000	1.052145e-002
6.789250359727740e-001	1.947633e+000	1.056688e-002
6.789804861249370e-001	1.946540e+000	1.064108e-002
6.789900118707525e-001	1.946353e+000	1.065383e-002
6.789995376165680e-001	1.946165e+000	1.066657e-002
6.790090633623834e-001	1.945977e+000	1.067931e-002
6.790185891081989e-001	1.945789e+000	1.069205e-002
6.790281148540144e-001	1.945601e+000	1.070479e-002
6.790376405998299e-001	1.945413e+000	1.071753e-002
6.790471663456453e-001	1.945225e+000	1.073027e-002
6.790495743336893e-001	1.945178e+000	1.073349e-002
6.790509550173574e-001	1.945150e+000	1.073534e-002
6.790526526313910e-001	1.945117e+000	1.073761e-002
6.790544062580179e-001	1.945082e+000	1.073995e-002
6.790565843401727e-001	1.945039e+000	1.074286e-002
6.790588685290946e-001	1.944994e+000	1.074592e-002
6.790612812010213e-001	1.944947e+000	1.074914e-002
6.790639021861856e-001	1.944895e+000	1.075264e-002
6.790759171442302e-001	1.944658e+000	1.076870e-002
6.790884224079772e-001	1.944411e+000	1.078542e-002
6.791134329354712e-001	1.943917e+000	1.081884e-002
6.791332199128453e-001	1.943526e+000	1.084527e-002
6.791583136814743e-001	1.943030e+000	1.087879e-002
6.791866895609092e-001	1.942469e+000	1.091668e-002
6.792169345405759e-001	1.941871e+000	1.095705e-002
6.792456025585144e-001	1.941303e+000	1.099531e-002
6.792510883558861e-001	1.941195e+000	1.100263e-002
6.792562103192056e-001	1.941093e+000	1.100946e-002
6.792610784617490e-001	1.940997e+000	1.101596e-002
6.792945490022619e-001	1.940334e+000	1.106060e-002
6.793280195427749e-001	1.939671e+000	1.110523e-002
6.793614900832878e-001	1.939007e+000	1.114983e-002
6.793949606238007e-001	1.938343e+000	1.119442e-002
6.794284311643136e-001	1.937679e+000	1.123899e-002
6.794619017048266e-001	1.937015e+000	1.128354e-002
6.794953722453395e-001	1.936350e+000	1.132807e-002
6.800138118148408e-001	1.926006e+000	1.201534e-002
6.807050645741757e-001	1.912089e+000	1.292438e-002
6.820875700928455e-001	1.883821e+000	1.471739e-002
6.848525811301852e-001	1.825589e+000	1.820315e-002
6.903826032048647e-001	1.702586e+000	2.477365e-002
7.014426473542235e-001	1.432557e+000	3.631093e-002
7.235627356529412e-001	8.153572e-001	5.412759e-002
7.528596106529412e-001	-8.981799e-002	6.833024e-002
7.821564856529412e-001	-9.829563e-001	7.427218e-002
7.821573797226128e-001	-9.829821e-001	7.427218e-002
7.843804839611229e-001	-1.046917e+000	7.398180e-002
7.866035881996331e-001	-1.109917e+000	7.363045e-002
7.888266924381432e-001	-1.171982e+000	7.321813e-002
7.910497966766533e-001	-1.233113e+000	7.274484e-002
7.932729009151635e-001	-1.293309e+000	7.221058e-002
7.954960051536736e-001	-1.352570e+000	7.161534e-002
7.977191093921837e-001	-1.410896e+000	7.095914e-002
8.013803246975121e-001	-1.504323e+000	6.968863e-002
8.022958520412621e-001	-1.527195e+000	6.934225e-002
8.025247338771996e-001	-1.532881e+000	6.925395e-002
8.029824975490746e-001	-1.544217e+000	6.907385e-002
8.036312295757601e-001	-1.560193e+000	6.881443e-002
8.042275150622911e-001	-1.574786e+000	6.857006e-002
8.078052279814771e-001	-1.660460e+000	6.697522e-002
8.125755118737251e-001	-1.769444e+000	6.453576e-002
8.221160796582211e-001	-1.967972e+000	5.870338e-002
8.411972152272130e-001	-2.277825e+000	4.488594e-002
8.522735913243236e-001	-2.398740e+000	3.568617e-002
8.604900395209162e-001	-2.458556e+000	2.812261e-002
8.691981382100380e-001	-2.493358e+000	1.959451e-002
8.803403267306099e-001	-2.494373e+000	8.154702e-003
8.911932349853243e-001	-2.448418e+000	-3.463944e-003
9.087976717156832e-001	-2.277891e+000	-2.283078e-002
9.088002446234150e-001	-2.277858e+000	-2.283367e-002
9.088036751670575e-001	-2.277814e+000	-2.283753e-002
9.111986161946405e-001	-2.245726e+000	-2.554185e-002
9.135935572222235e-001	-2.211677e+000	-2.825014e-002
9.159884982498064e-001	-2.175665e+000	-3.096239e-002
9.183834392773895e-001	-2.137692e+000	-3.367860e-002
9.207783803049725e-001	-2.097756e+000	-3.639877e-002
9.231733213325555e-001	-2.055858e+000	-3.912291e-002
9.255682623601385e-001	-2.011997e+000	-4.185101e-002
9.258998729561184e-001	-2.005796e+000	-4.222885e-002
9.262314835520985e-001	-1.999560e+000	-4.260670e-002
9.265630941480785e-001	-1.993290e+000	-4.298457e-002
9.268947047440586e-001	-1.986985e+000	-4.336244e-002
9.272263153400385e-001	-1.980646e+000	-4.374033e-002
