time	V(x_t)	V(y)
0.000000000000000e+000	0.000000e+000	5.253836e-019
5.554895389739605e-007	4.362805e-006	5.285542e-012
1.110979077947921e-006	8.725609e-006	9.572345e-012
1.666468616921882e-006	1.308841e-005	1.286041e-011
2.221958155895842e-006	1.745122e-005	1.514974e-011
2.777447694869802e-006	2.181402e-005	1.644033e-011
3.332937233843763e-006	2.617683e-005	1.673218e-011
3.888426772817722e-006	3.053963e-005	1.602529e-011
4.678481158271619e-006	3.674471e-005	1.578187e-011
5.596079859320886e-006	4.395151e-005	1.568433e-011
6.801447535717423e-006	5.341844e-005	1.530273e-011
8.239021846187054e-006	6.470913e-005	1.482629e-011
1.008747713225007e-005	7.922686e-005	1.404085e-011
1.233237441133970e-005	9.685824e-005	1.284286e-011
1.518380220963214e-005	1.192533e-004	1.097426e-011
1.868394989647962e-005	1.467434e-004	8.127314e-012
2.309669909032063e-005	1.814010e-004	3.759295e-012
2.854775797726440e-005	2.242136e-004	-2.747398e-012
3.538978507691861e-005	2.779507e-004	-1.233239e-011
4.387459224396380e-005	3.445903e-004	-2.571944e-011
5.449852150148144e-005	4.280304e-004	-4.308767e-011
6.770798260738459e-005	5.317773e-004	-6.146501e-011
8.423193343267129e-005	6.615560e-004	-7.083367e-011
1.021848055649683e-004	8.025576e-004	-4.952662e-011
1.204494736208523e-004	9.460080e-004	2.827091e-011
1.392657747699855e-004	1.093791e-003	1.984780e-010
1.589973278695618e-004	1.248762e-003	5.206610e-010
1.819838628450416e-004	1.429298e-003	1.152027e-009
2.090076401814255e-004	1.641542e-003	2.363588e-009
2.410083074036399e-004	1.892875e-003	4.675071e-009
2.785608656603786e-004	2.187812e-003	9.013119e-009
3.228009191385680e-004	2.535272e-003	1.714118e-008
3.747228140474438e-004	2.943065e-003	3.225094e-008
4.359265154015156e-004	3.423758e-003	6.036385e-008
5.080867236000609e-004	3.990502e-003	1.125263e-007
5.936853629769202e-004	4.662791e-003	2.096136e-007
6.957502890363864e-004	5.464406e-003	3.906745e-007
8.188328945315673e-004	6.431092e-003	7.308556e-007
9.695577191418111e-004	7.614877e-003	1.320661e-006
1.046237964984249e-003	8.217119e-003	1.697835e-006
1.053426738031978e-003	8.273579e-003	1.739951e-006
1.067383918056184e-003	8.383198e-003	1.825054e-006
1.081341098080390e-003	8.492817e-003	1.912965e-006
1.095298278104596e-003	8.602436e-003	2.003683e-006
1.109255458128802e-003	8.712054e-003	2.097210e-006
1.123212638153008e-003	8.821673e-003	2.193544e-006
1.137169818177214e-003	8.931292e-003	2.292686e-006
1.151126998201420e-003	9.040911e-003	2.394636e-006
1.191533261985844e-003	9.358259e-003	2.703183e-006
1.238064922731929e-003	9.723715e-003	3.087060e-006
1.289952742031943e-003	1.013124e-002	3.550661e-006
1.441882954858822e-003	1.132448e-002	5.138350e-006
1.542632795964783e-003	1.211576e-002	6.352758e-006
1.636011899705090e-003	1.284915e-002	7.588356e-006
1.690436370916278e-003	1.327659e-002	8.366591e-006
1.754334938034955e-003	1.377844e-002	9.338765e-006
1.817057523540207e-003	1.427106e-002	1.034252e-005
1.884928752724110e-003	1.480411e-002	1.149374e-005
2.020671211091917e-003	1.587021e-002	1.395352e-005
2.215380662261106e-003	1.739942e-002	1.771281e-005
2.389149288252447e-003	1.876416e-002	2.125101e-005
2.549497933005541e-003	2.002349e-002	2.463479e-005
2.710301126775665e-003	2.128640e-002	2.809377e-005
2.877032169667632e-003	2.259585e-002	3.172305e-005
3.074888140330347e-003	2.414974e-002	3.608767e-005
3.287016822764791e-003	2.581571e-002	4.087670e-005
3.484012729391868e-003	2.736283e-002	4.550128e-005
3.665143273614978e-003	2.878533e-002	4.998379e-005
3.813125883635396e-003	2.994750e-002	5.386638e-005
3.930581953479563e-003	3.086993e-002	5.711686e-005
4.001534342538413e-003	3.142715e-002	5.917430e-005
4.086982616427550e-003	3.209820e-002	6.174068e-005
4.125833139345984e-003	3.240331e-002	6.294088e-005
4.273339453975367e-003	3.356172e-002	6.772868e-005
4.397191298673177e-003	3.453436e-002	7.193921e-005
4.456935579986617e-003	3.500355e-002	7.404039e-005
4.532644937037964e-003	3.559811e-002	7.678552e-005
4.604521363698052e-003	3.616257e-002	7.945344e-005
4.673049067142861e-003	3.670072e-002	8.206121e-005
4.782053883030506e-003	3.755675e-002	8.631506e-005
4.909580494618258e-003	3.855823e-002	9.142460e-005
5.094595814986278e-003	4.001115e-002	9.902049e-005
5.256730096557812e-003	4.128439e-002	1.058003e-004
5.427146325639756e-003	4.262264e-002	1.130139e-004
5.594819808562896e-003	4.393935e-002	1.201573e-004
5.769014023030229e-003	4.530725e-002	1.276230e-004
6.015649727653847e-003	4.724399e-002	1.382946e-004
6.218249789318374e-003	4.883491e-002	1.472192e-004
6.411481315521893e-003	5.035225e-002	1.559603e-004
6.565542297515674e-003	5.156199e-002	1.631552e-004
6.700461498086523e-003	5.262142e-002	1.696534e-004
6.775787026740303e-003	5.321289e-002	1.733791e-004
6.842376286412042e-003	5.373576e-002	1.767416e-004
6.886820551102699e-003	5.408474e-002	1.790211e-004
6.939000917313497e-003	5.449447e-002	1.817360e-004
7.055826759308099e-003	5.541180e-002	1.879452e-004
7.126279643763295e-003	5.596500e-002	1.917784e-004
7.197079699764686e-003	5.652092e-002	1.956901e-004
7.249949669433588e-003	5.693605e-002	1.986547e-004
7.305819280066610e-003	5.737473e-002	2.018335e-004
7.385176334311578e-003	5.799783e-002	2.064135e-004
7.467551583357658e-003	5.864463e-002	2.112528e-004
7.632302081449819e-003	5.993822e-002	2.211292e-004
7.822632443233748e-003	6.143263e-002	2.327519e-004
7.988820015443557e-003	6.273746e-002	2.430541e-004
8.143331773262243e-003	6.395060e-002	2.527215e-004
8.299479004748091e-003	6.517657e-002	2.625375e-004
8.475040117898154e-003	6.655495e-002	2.736079e-004
8.683373933266118e-003	6.819060e-002	2.867977e-004
8.876901807471006e-003	6.970999e-002	2.991477e-004
9.070271950109902e-003	7.122811e-002	3.116589e-004
9.250691837751734e-003	7.264454e-002	3.235560e-004
9.397724262836494e-003	7.379883e-002	3.334687e-004
9.519843794691322e-003	7.475753e-002	3.418732e-004
9.584717406355168e-003	7.526682e-002	3.464201e-004
9.664649304360957e-003	7.589432e-002	3.521024e-004
9.708327402860782e-003	7.623720e-002	3.552435e-004
9.770586502427828e-003	7.672596e-002	3.597789e-004
9.868801607675422e-003	7.749697e-002	3.670234e-004
9.942115527661265e-003	7.807250e-002	3.725006e-004
9.996898596837028e-003	7.850255e-002	3.766456e-004
1.006404381145655e-002	7.902965e-002	3.817817e-004
1.013018859954597e-002	7.954889e-002	3.868928e-004
1.019922903879762e-002	8.009085e-002	3.922930e-004
1.033730991730091e-002	8.117477e-002	4.032496e-004
1.053545262994160e-002	8.273014e-002	4.191979e-004
1.070817297070085e-002	8.408593e-002	4.332718e-004
1.086179603250684e-002	8.529180e-002	4.458940e-004
1.102143943449981e-002	8.654489e-002	4.590663e-004
1.119109714538530e-002	8.787657e-002	4.730955e-004
1.137321176536928e-002	8.930599e-002	4.881894e-004
1.159056569373478e-002	9.101197e-002	5.062838e-004
1.178277680794572e-002	9.252058e-002	5.224336e-004
1.199665423685240e-002	9.419920e-002	5.406566e-004
1.215676021925133e-002	9.545577e-002	5.545357e-004
1.228872286079676e-002	9.649143e-002	5.661710e-004
1.235921142707960e-002	9.704463e-002	5.724826e-004
1.245676866937621e-002	9.781026e-002	5.813222e-004
1.249652283345202e-002	9.812225e-002	5.849595e-004
1.256252827753042e-002	9.864026e-002	5.910631e-004
1.266121892878535e-002	9.941476e-002	6.002759e-004
1.272882967172913e-002	9.994535e-002	6.066505e-004
1.278589801151261e-002	1.003932e-001	6.120825e-004
1.284585781599786e-002	1.008637e-001	6.178417e-004
1.294433010361628e-002	1.016365e-001	6.273870e-004
1.303552990122110e-002	1.023522e-001	6.363274e-004
1.321792949643074e-002	1.037835e-001	6.544281e-004
1.340614500293750e-002	1.052605e-001	6.733006e-004
1.356842811648713e-002	1.065339e-001	6.897050e-004
1.373223312997863e-002	1.078193e-001	7.063377e-004
1.388887875483245e-002	1.090484e-001	7.222762e-004
1.406689422183393e-002	1.104452e-001	7.404185e-004
1.432458639599909e-002	1.124671e-001	7.667560e-004
1.452643516270029e-002	1.140508e-001	7.875159e-004
1.472478111749434e-002	1.156069e-001	8.081233e-004
1.488447927884406e-002	1.168598e-001	8.249294e-004
1.502029400960039e-002	1.179253e-001	8.394183e-004
1.512136167507394e-002	1.187182e-001	8.503332e-004
1.519206301975165e-002	1.192729e-001	8.580462e-004
1.524440040532878e-002	1.196835e-001	8.638027e-004
1.530483212557614e-002	1.201576e-001	8.704996e-004
1.538210504148320e-002	1.207638e-001	8.791353e-004
1.548659030866568e-002	1.215834e-001	8.909128e-004
1.554828810284741e-002	1.220674e-001	8.979273e-004
1.561561196619633e-002	1.225955e-001	9.056474e-004
1.570454854536909e-002	1.232932e-001	9.159249e-004
1.579937918038038e-002	1.240371e-001	9.269879e-004
1.598904045040296e-002	1.255248e-001	9.493377e-004
1.617441426163176e-002	1.269789e-001	9.713735e-004
1.633816567108397e-002	1.282633e-001	9.909705e-004
1.650665807682137e-002	1.295849e-001	1.011207e-003
1.666607118159692e-002	1.308352e-001	1.030384e-003
1.684265629313962e-002	1.322202e-001	1.051651e-003
1.710590744145615e-002	1.342848e-001	1.083427e-003
1.730917394130972e-002	1.358790e-001	1.108098e-003
1.752990952191726e-002	1.376100e-001	1.135132e-003
1.769297437692521e-002	1.388887e-001	1.155331e-003
1.782618062840367e-002	1.399333e-001	1.172026e-003
1.791296956963906e-002	1.406139e-001	1.183019e-003
1.800006020726509e-002	1.412968e-001	1.194144e-003
1.805078148533233e-002	1.416945e-001	1.200669e-003
1.811247615897778e-002	1.421783e-001	1.208662e-003
1.820836049943904e-002	1.429302e-001	1.221168e-003
1.827858133514368e-002	1.434808e-001	1.230391e-003
1.834731396970265e-002	1.440197e-001	1.239482e-003
1.841557809489227e-002	1.445549e-001	1.248568e-003
1.849418131156224e-002	1.451713e-001	1.259108e-003
1.865138774490219e-002	1.464038e-001	1.280367e-003
1.884006191732441e-002	1.478831e-001	1.306091e-003
1.901035949271457e-002	1.492183e-001	1.329471e-003
1.916861018981551e-002	1.504589e-001	1.351292e-003
1.932736386520693e-002	1.517035e-001	1.373228e-003
1.949239131899846e-002	1.529972e-001	1.396050e-003
1.967737224988192e-002	1.544473e-001	1.421651e-003
1.990526218466989e-002	1.562337e-001	1.453254e-003
2.010460457733648e-002	1.577962e-001	1.481031e-003
2.031413756463645e-002	1.594386e-001	1.510453e-003
2.047464947747299e-002	1.606967e-001	1.533212e-003
2.060742323458064e-002	1.617373e-001	1.552230e-003
2.070119044555063e-002	1.624722e-001	1.565793e-003
2.081544407331046e-002	1.633676e-001	1.582453e-003
2.086721962365201e-002	1.637734e-001	1.590055e-003
2.093810224823797e-002	1.643289e-001	1.600529e-003
2.100560075024033e-002	1.648579e-001	1.610554e-003
2.106495518238799e-002	1.653230e-001	1.619417e-003
2.112928985771471e-002	1.658272e-001	1.629076e-003
2.121367068062125e-002	1.664885e-001	1.641815e-003
2.130789499853543e-002	1.672269e-001	1.656132e-003
2.145007395206598e-002	1.683410e-001	1.677894e-003
2.165683374827674e-002	1.699612e-001	1.709755e-003
2.182291334153444e-002	1.712625e-001	1.735482e-003
2.199521223094497e-002	1.726125e-001	1.762260e-003
2.215860491068163e-002	1.738928e-001	1.787686e-003
2.232372988313153e-002	1.751865e-001	1.813393e-003
2.254157247278170e-002	1.768932e-001	1.847334e-003
2.274324069208383e-002	1.784731e-001	1.878825e-003
2.292955472975680e-002	1.799326e-001	1.908052e-003
2.311348608867840e-002	1.813734e-001	1.937105e-003
2.326679903080084e-002	1.825743e-001	1.961527e-003
2.339862168409838e-002	1.836069e-001	1.982709e-003
2.349083411963610e-002	1.843292e-001	1.997651e-003
2.359558821311093e-002	1.851496e-001	2.014744e-003
2.365394446775255e-002	1.856067e-001	2.024324e-003
2.372755926423759e-002	1.861833e-001	2.036476e-003
2.378994412050877e-002	1.866719e-001	2.046823e-003
2.386225501064261e-002	1.872382e-001	2.058877e-003
2.393371746259426e-002	1.877979e-001	2.070847e-003
2.401846213259888e-002	1.884616e-001	2.085128e-003
2.418795147260812e-002	1.897890e-001	2.113883e-003
2.437625884598499e-002	1.912636e-001	2.146034e-003
2.454303186836303e-002	1.925696e-001	2.174659e-003
2.472049029489402e-002	1.939592e-001	2.205213e-003
2.488285433747001e-002	1.952305e-001	2.233205e-003
2.505700484201391e-002	1.965941e-001	2.263239e-003
2.524830654187213e-002	1.980919e-001	2.296245e-003
2.546521220418163e-002	1.997900e-001	2.333723e-003
2.565553085124097e-002	2.012800e-001	2.366727e-003
2.585966322078844e-002	2.028780e-001	2.402337e-003
2.602030086075780e-002	2.041354e-001	2.430572e-003
2.615540823094432e-002	2.051930e-001	2.454509e-003
2.625061330430766e-002	2.059382e-001	2.471510e-003
2.637457583833923e-002	2.069085e-001	2.493796e-003
2.643715684242745e-002	2.073983e-001	2.505113e-003
2.651385656992941e-002	2.079986e-001	2.519058e-003
2.658125848661845e-002	2.085262e-001	2.531367e-003
2.664980939454119e-002	2.090627e-001	2.543948e-003
2.675880575242344e-002	2.099157e-001	2.564054e-003
2.687254009649280e-002	2.108058e-001	2.585159e-003
2.705417771829412e-002	2.122273e-001	2.619069e-003
2.723253987537697e-002	2.136230e-001	2.652533e-003
2.739842972538148e-002	2.149211e-001	2.683766e-003
2.756545919941880e-002	2.162281e-001	2.715268e-003
2.772749398228114e-002	2.174959e-001	2.745844e-003
2.791209698859825e-002	2.189403e-001	2.780684e-003
2.818087732083235e-002	2.210431e-001	2.831456e-003
2.838728557277405e-002	2.226578e-001	2.870550e-003
2.858300971169249e-002	2.241889e-001	2.907800e-003
2.874623613105036e-002	2.254656e-001	2.939065e-003
2.888704946850658e-002	2.265671e-001	2.966231e-003
2.900641807205559e-002	2.275007e-001	2.989423e-003
2.910977916754383e-002	2.283091e-001	3.009629e-003
2.917583713482836e-002	2.288258e-001	3.022613e-003
2.925296716628518e-002	2.294290e-001	3.037843e-003
2.932193135045885e-002	2.299684e-001	3.051519e-003
2.939889846436153e-002	2.305703e-001	3.066851e-003
2.950090596130641e-002	2.313680e-001	3.087267e-003
2.961037002874719e-002	2.322240e-001	3.109295e-003
2.979261358102976e-002	2.336491e-001	3.146176e-003
2.998979475397087e-002	2.351910e-001	3.186271e-003
3.017369769821697e-002	2.366289e-001	3.223793e-003
3.034622358970920e-002	2.379778e-001	3.259049e-003
3.050854543262610e-002	2.392469e-001	3.292232e-003
3.069108362029032e-002	2.406739e-001	3.329550e-003
3.097472757158051e-002	2.428912e-001	3.387584e-003
3.118033462506307e-002	2.444983e-001	3.429761e-003
3.137604902021152e-002	2.460281e-001	3.470093e-003
3.153562882496646e-002	2.472753e-001	3.503176e-003
3.167536520540901e-002	2.483674e-001	3.532335e-003
3.179164465810069e-002	2.492761e-001	3.556768e-003
3.193463637357697e-002	2.503935e-001	3.587008e-003
3.202537968175257e-002	2.511026e-001	3.606312e-003
3.211584637315750e-002	2.518095e-001	3.625663e-003
3.220514897935613e-002	2.525073e-001	3.644863e-003
3.235500464089128e-002	2.536783e-001	3.677259e-003
3.251174030596126e-002	2.549029e-001	3.711323e-003
3.268179542734472e-002	2.562315e-001	3.748457e-003
3.285213406262693e-002	2.575622e-001	3.785776e-003
3.302466349196592e-002	2.589100e-001	3.823643e-003
3.318620500811589e-002	2.601719e-001	3.859119e-003
3.336763227239288e-002	2.615891e-001	3.898960e-003
3.356014125855168e-002	2.630927e-001	3.941234e-003
3.376927225641299e-002	2.647260e-001	3.987195e-003
3.395985166500061e-002	2.662144e-001	4.029184e-003
3.415749829675020e-002	2.677578e-001	4.072913e-003
3.431811140292281e-002	2.690119e-001	4.108647e-003
3.445811353624020e-002	2.701051e-001	4.139987e-003
3.457609089198264e-002	2.710263e-001	4.166567e-003
3.471592878999624e-002	2.721181e-001	4.198289e-003
3.488863832422653e-002	2.734664e-001	4.237745e-003
3.504559419410883e-002	2.746917e-001	4.273857e-003
3.521117922490914e-002	2.759843e-001	4.312208e-003
3.540875605278922e-002	2.775265e-001	4.358205e-003
3.558638671725135e-002	2.789130e-001	4.399708e-003
3.574473040884867e-002	2.801488e-001	4.436779e-003
3.590341372389585e-002	2.813872e-001	4.473955e-003
3.608231272640206e-002	2.827833e-001	4.515863e-003
3.626227314579450e-002	2.841876e-001	4.558011e-003
3.649088359419558e-002	2.859714e-001	4.611578e-003
3.669276703248561e-002	2.875465e-001	4.658975e-003
3.690391484563668e-002	2.891938e-001	4.708731e-003
3.707203429918846e-002	2.905053e-001	4.748550e-003
3.721518831590270e-002	2.916220e-001	4.782655e-003
3.734348334397000e-002	2.926227e-001	4.813408e-003
3.749043966152090e-002	2.937689e-001	4.848871e-003
3.767516283615614e-002	2.952096e-001	4.893777e-003
3.789606156053998e-002	2.969324e-001	4.947864e-003
3.806969367888692e-002	2.982864e-001	4.990638e-003
3.823668505901624e-002	2.995885e-001	5.031961e-003
3.840870977692780e-002	3.009298e-001	5.074639e-003
3.858214282054273e-002	3.022820e-001	5.117717e-003
3.874301516895977e-002	3.035362e-001	5.157683e-003
3.893212056076315e-002	3.050104e-001	5.204649e-003
3.913757453849304e-002	3.066119e-001	5.255668e-003
3.933598386494474e-002	3.081584e-001	5.304974e-003
3.952041789363290e-002	3.095958e-001	5.350907e-003
3.971118007383574e-002	3.110825e-001	5.398589e-003
3.987063337721464e-002	3.123250e-001	5.438638e-003
4.001734034596561e-002	3.134682e-001	5.475690e-003
4.015150193907321e-002	3.145136e-001	5.509770e-003
4.029592136274357e-002	3.156388e-001	5.546721e-003
4.058476021008428e-002	3.178890e-001	5.621155e-003
4.075803819544008e-002	3.192389e-001	5.666101e-003
4.093272525330386e-002	3.205996e-001	5.711659e-003
4.109677834309157e-002	3.218774e-001	5.754569e-003
4.126469513363027e-002	3.231851e-001	5.798559e-003
4.143368662774703e-002	3.245012e-001	5.842851e-003
4.159761777162015e-002	3.257778e-001	5.885806e-003
4.179593988130151e-002	3.273221e-001	5.937756e-003
4.203795923873377e-002	3.292064e-001	6.001165e-003
4.223831847868505e-002	3.307663e-001	6.053738e-003
4.242957235922484e-002	3.322551e-001	6.104073e-003
4.259828084001095e-002	3.335684e-001	6.148661e-003
4.274514241912725e-002	3.347115e-001	6.187679e-003
4.291017150902394e-002	3.359959e-001	6.231771e-003
4.305910238004131e-002	3.371549e-001	6.271812e-003
4.325803947222624e-002	3.387030e-001	6.325637e-003
4.342570917268577e-002	3.400077e-001	6.371268e-003
4.361736864556204e-002	3.414990e-001	6.423688e-003
4.379212462018901e-002	3.428586e-001	6.471648e-003
4.395630053420604e-002	3.441358e-001	6.516797e-003
4.412144301891216e-002	3.454204e-001	6.562247e-003
4.429212089925322e-002	3.467480e-001	6.609219e-003
4.446153802445715e-002	3.480657e-001	6.655823e-003
4.470900948731598e-002	3.499903e-001	6.723882e-003
4.491769167151370e-002	3.516131e-001	6.781313e-003
4.509843103390028e-002	3.530184e-001	6.831161e-003
4.529662965066309e-002	3.545594e-001	6.886014e-003
4.545877110795809e-002	3.558199e-001	6.931089e-003
4.560084104288260e-002	3.569244e-001	6.970789e-003
4.575751965858733e-002	3.581423e-001	7.014811e-003
4.591754958178481e-002	3.593861e-001	7.060043e-003
4.613802844857179e-002	3.610997e-001	7.122738e-003
4.634747423150845e-002	3.627273e-001	7.182606e-003
4.652365190049810e-002	3.640963e-001	7.233163e-003
4.669064095402296e-002	3.653938e-001	7.281190e-003
4.685922122267656e-002	3.667036e-001	7.329717e-003
4.702572314836311e-002	3.679971e-001	7.377646e-003
4.720627904174062e-002	3.693997e-001	7.429595e-003
4.740256601270892e-002	3.709243e-001	7.486046e-003
4.760745939089641e-002	3.725157e-001	7.544985e-003
4.779456440238775e-002	3.739687e-001	7.598882e-003
4.799004486407858e-002	3.754867e-001	7.655344e-003
4.815867537423015e-002	3.767960e-001	7.704236e-003
4.830664991632824e-002	3.779449e-001	7.747340e-003
4.847124946650613e-002	3.792228e-001	7.795529e-003
4.862077170013979e-002	3.803835e-001	7.839556e-003
4.885333128310157e-002	3.821886e-001	7.908436e-003
4.905858934543149e-002	3.837817e-001	7.969545e-003
4.924018490387942e-002	3.851910e-001	8.023833e-003
4.940781272079646e-002	3.864917e-001	8.074065e-003
4.957779607873081e-002	3.878107e-001	8.125057e-003
4.974549856751894e-002	3.891118e-001	8.175372e-003
4.991361831892000e-002	3.904161e-001	8.225788e-003
5.011308277843234e-002	3.919634e-001	8.285571e-003
5.034337552710334e-002	3.937496e-001	8.354592e-003
5.054261690927164e-002	3.952948e-001	8.414369e-003
5.073011886847877e-002	3.967489e-001	8.470755e-003
5.090303233301471e-002	3.980896e-001	8.522933e-003
5.105491350467353e-002	3.992673e-001	8.568963e-003
5.122277991704643e-002	4.005687e-001	8.620080e-003
5.137456099236954e-002	4.017453e-001	8.666543e-003
